"S_width [mm]","T_sub [mm]","W_50 [mm]","Freq [GHz]","dB(S(1,1)) []","dB(S(2,1)) []","im(Gamma(1:1)) []","re(Gamma(1:1)) []","re(Zo(1:1)) []","ang_deg(S(1,1)) [deg]","ang_deg(S(2,1)) [deg]"
0.1,0.254,0.5,37,-40.8852643042671,-0.452119612092608,1152.08551724232,3.57430571174595,54.1830710314777,157.856427940435,93.8566790494041
0.1,0.254,0.5,37.05,-40.9088100275399,-0.450113266784232,1153.69423436217,3.57833234932142,54.1862954755008,156.303484968618,92.5325155760934
0.1,0.254,0.5,37.1,-40.9175043453556,-0.448454964970065,1155.30323142073,3.5823590185582,54.1895791627029,154.877798599052,91.2140801082306
0.1,0.254,0.5,37.15,-40.9136272918249,-0.447112659444069,1156.91250965626,3.58638568263126,54.192921876925,153.560711343447,89.9011216534723
0.1,0.254,0.5,37.2,-40.8989756993713,-0.44605520703241,1158.52207032453,3.59041230206163,54.1963237561255,152.33673871436,88.5933816948962
0.1,0.254,0.5,37.25,-40.8749773712362,-0.445252284984888,1160.13191470006,3.59443883448816,54.1997852944076,151.192900377339,87.2905959865243
0.1,0.254,0.5,37.3,-40.8427747348091,-0.444674323450693,1161.74204407733,3.59846523441681,54.2033073477342,150.118207199476,85.9924964815006
0.1,0.254,0.5,37.35,-40.8032869230076,-0.44429246071186,1163.35245977229,3.60249145294479,54.2068911438988,149.103262501315,84.6988133775486
0.1,0.254,0.5,37.4,-40.7572564126731,-0.444078527737207,1164.96316312381,3.60651743745685,54.2105382973245,148.139947873837,83.4092772540697
0.1,0.254,0.5,37.45,-40.7052844858648,-0.44400506808251,1166.5741554955,3.61054313129004,54.2142508293069,147.221172123955,82.1236212642528
0.1,0.254,0.5,37.5,-40.6478585324159,-0.444045398136418,1168.18543827752,3.61456847336331,54.2180311944145,146.340667585071,80.8415833346401
0.1,0.254,0.5,37.55,-40.585373368663,-0.444173711165264,1169.79701288871,3.61859339776773,54.2218823139014,145.492822007034,79.5629083146924
0.1,0.254,0.5,37.6,-40.5181481744234,-0.44436522656258,1171.40888077886,3.62261783331155,54.2258076171756,144.672537060603,78.2873500111635
0.1,0.254,0.5,37.65,-40.4464402631425,-0.444596383236398,1173.02104343133,3.62664170301563,54.2298110926161,143.875106512165,77.0146730376239
0.1,0.254,0.5,37.7,-40.3704566445574,-0.444845073307767,1174.6335023658,3.63066492355137,54.233897349345,143.096108589205,75.7446544093323
0.1,0.254,0.5,37.75,-40.2903641811505,-0.445090909444748,1176.24625914149,3.63468740461424,54.2380716919638,142.331308140563,74.4770848185356
0.1,0.254,0.5,37.8,-40.2062990585423,-0.445315516457697,1177.85931536065,3.63870904822393,54.2423402107763,141.576565033051,73.211769535538
0.1,0.254,0.5,37.85,-40.1183762744982,-0.445502835494592,1179.47267267248,3.6427297479408,54.2467098906726,140.827745935638,71.9485288962293
0.1,0.254,0.5,37.9,-40.0266998966469,-0.445639427548114,1181.08633277754,3.64674938798688,54.2511887426968,140.080637346167,70.6871983564111
0.1,0.254,0.5,37.95,-39.9313749446878,-0.445714762221024,1182.70029743263,3.65076784225753,54.2557859634157,139.330858560751,69.4276281157549
0.1,0.254,0.5,38,-39.8325219195453,-0.445721477917451,1184.31456845639,3.65478497320764,54.2605121286404,138.573774472161,68.1696823377604
0.1,0.254,0.5,38.05,-39.7302952272505,-0.445655600858071,1185.92914773544,3.65880063059298,54.2653794299477,137.804409894988,66.9132380145568
0.1,0.254,0.5,38.1,-39.6249070157661,-0.445516712470877,1187.5440372315,3.66281465004574,54.2704019649729,137.017369960822,65.6581835447771
0.1,0.254,0.5,38.15,-39.5166582191896,-0.445308057599097,1189.15923898928,3.66682685145556,54.27559609584,136.206775577953,64.4044171072773
0.1,0.254,0.5,38.2,-39.4059787950282,-0.445036589327752,1190.77475514557,3.6708370371273,54.2809808947138,135.366229758924,63.1518449219663
0.1,0.254,0.5,38.25,-39.2934790624033,-0.444712949751935,1192.3905879395,3.6748449896769,54.2865787018078,134.488840656942,61.9003794908787
0.1,0.254,0.5,38.3,-39.1800133627292,-0.444351389381788,1194.00673972425,3.6788504696216,54.2924158300072,133.567341158516,60.649937908073
0.1,0.254,0.5,38.35,-39.0667553990535,-0.443969630825865,1195.62321298055,3.68285321261141,54.2985234627119,132.594362806919,59.4004403167427
0.1,0.254,0.5,38.4,-38.9552807101778,-0.443588684707638,1197.24001033206,3.68685292623798,54.3049388092675,131.562941455059,58.1518085774426
0.1,0.254,0.5,38.45,-38.8476447307421,-0.443232627324957,1198.85713456315,3.69084928634372,54.3117066081119,130.467346494217,56.903965194145
0.1,0.254,0.5,38.5,-38.7464339095574,-0.442928350324859,1200.47458863947,3.69484193273742,54.3188811057062,129.304319756553,55.6568325266464
0.1,0.254,0.5,38.55,-38.6547528456537,-0.442705292681295,1202.09237573178,3.69883046420303,54.3265286961985,128.074758132702,54.4103323001642
0.1,0.254,0.5,38.6,-38.5760961819285,-0.442595164640356,1203.71049924372,3.7028144326587,54.3347314937042,126.785741006736,53.1643854070827
0.1,0.254,0.5,38.65,-38.514049840625,-0.442631672184873,1205.32896284431,3.70679333629825,54.3435922447664,125.452564621915,51.9189119825894
0.1,0.254,0.5,38.7,-38.4717882976769,-0.442850249133582,1206.94777050604,3.71076661149619,54.3532412053662,124.10012727303,50.6738317258951
0.1,0.254,0.5,38.75,-38.451398833807,-0.443287802391575,1208.56692654987,3.71473362321241,54.3638459623444,122.762747920483,49.4290644319524
0.1,0.254,0.5,38.8,-38.4531674691595,-0.443982474250461,1210.18643569855,3.71869365356087,54.375625779196,121.481555368632,48.1845306949136
0.1,0.254,0.5,38.85,-38.4750621209154,-0.444973424112763,1211.80630314006,3.72264588811916,54.388873092801,120.299208091157,46.9401527435983
0.1,0.254,0.5,38.9,-38.5126674733682,-0.446300630665577,1213.42653460361,3.72658939944201,54.4039866818389,119.25285278234,45.6958553704462
0.1,0.254,0.5,38.95,-38.5597018619318,-0.448004714402249,1215.04713645113,3.73052312708875,54.4215246039617,118.367349949159,44.4515669182558
0.1,0.254,0.5,39,-38.6090116982993,-0.450126779507358,1216.66811578808,3.73444585327522,54.4422920890983,117.651072352714,43.2072202928962
0.1,0.254,0.5,39.05,-38.6564411777978,-0.453021992911178,1218.28948081672,3.73835615720407,54.4670765377105,117.254526664858,41.9665637730218
0.1,0.254,0.5,39.1,-38.6791278497095,-0.456626028892459,1219.91124073272,3.74225241809729,54.4976653954024,117.174210865182,40.7302729104556
0.1,0.254,0.5,39.15,-38.6421605158711,-0.460729886110786,1221.53340589766,3.74613272513204,54.5363078023576,117.337734475025,39.5001635433494
0.1,0.254,0.5,39.2,-38.5173701992185,-0.464950698128539,1223.15598830008,3.74999483917281,54.5864741454743,117.500343528601,38.277615910441
0.1,0.254,0.5,39.25,-38.3050009520131,-0.468749451659943,1224.77900190164,3.75383611866225,54.6536308188927,117.301441139004,37.0626197946073
0.1,0.254,0.5,39.3,-38.0410885955504,-0.471589836028876,1226.40246307554,3.75765342455764,54.7463817315143,116.439214803508,35.8528539370203
0.1,0.254,0.5,39.35,-37.7799493530444,-0.473220143612925,1228.02639116735,3.76144299708501,54.8777878718523,114.816486788243,34.6438467312101
0.1,0.254,0.5,39.4,-37.5690287909011,-0.473870746697172,1229.65080921999,3.7652002940909,55.0676833896081,112.537336981023,33.4308121663352
0.1,0.254,0.5,39.45,-37.4363929953465,-0.474152011119485,1231.27574492176,3.76891977632712,55.361515551413,109.806281164754,32.2109602250135
0.1,0.254,0.5,39.5,-37.3920442572425,-0.474735975839108,1232.90123186186,3.77259461825491,55.9527494752061,106.836520646789,30.9843493401613
0.1,0.254,0.5,39.55,-37.4168436706701,-0.475774279209307,1234.52731204583,3.77621636964835,56.9978899165928,103.680764786956,29.7513305423543
0.1,0.254,0.5,39.6,-37.5109975403067,-0.477609263337171,1236.15403745391,3.77977436429055,61.1891871012996,100.351295734739,28.5127168986944
0.1,0.254,0.5,39.65,-37.6753399725036,-0.480411723099654,1237.78147415233,3.78325501503021,71.4032577878166,96.7783777602972,27.2687805219138
0.1,0.254,0.5,39.7,-37.9195204603299,-0.484335302140123,1239.4097072727,3.78664074945159,64.1117451897531,92.8232972367339,26.0190130721269
0.1,0.254,0.5,39.75,-38.2653292759405,-0.489577477566565,1241.03884850056,3.78990847263562,60.8524303480737,88.2557625575811,24.7618206611344
0.1,0.254,0.5,39.8,-38.7521878767512,-0.496453345280559,1242.66904733339,3.79302728339961,60.2671920974309,82.6853786300337,23.4940554777015
0.1,0.254,0.5,39.85,-39.4464022694283,-0.505508516971735,1244.30050850128,3.79595500273134,60.0446044201475,75.382626119144,22.2101736309583
0.1,0.254,0.5,39.9,-40.4499304133322,-0.517722154431877,1245.93351977518,3.79863277002131,59.8825973239376,64.7785294910321,20.9006021694011
0.1,0.254,0.5,39.95,-41.8385428904841,-0.534924050971414,1247.56849795888,3.80097643001045,59.8281910393958,46.9331880053734,19.548289274192
0.1,0.254,0.5,40,-42.8813972585717,-0.560787655659614,1249.2060680783,3.80286251815637,59.8249691695374,12.3477329429865,18.120698881849
0.1,0.254,0.5,40.05,-39.725311822829,-0.562705474399825,1250.84733720313,3.80411663351849,59.8667354459539,-32.2657733117354,16.7077161221429
0.1,0.254,0.5,40.1,-32.843906255508,-0.670338916728192,1252.49352187418,3.8044214036724,59.8908358559349,-73.915070047295,14.7069676506921
0.1,0.254,0.5,40.15,-23.6895670076984,-0.905938018016965,1254.14771637089,3.80336662711969,59.9255339382549,-101.390870360953,11.8642890713678
0.1,0.254,0.5,40.2,-11.6507009454722,-1.98259974863024,1255.81480587663,3.80031916373831,59.9657453861928,-129.936828994953,6.10297263031674
0.1,0.254,0.5,40.25,-3.51270160502807,-6.68281323049567,1257.50403520729,3.7946373904686,59.983814491453,-149.418955686754,3.32944387573372
0.1,0.254,0.5,40.3,-2.16910645884881,-12.191360228438,1259.23172229509,3.78677021037311,60.0097595155128,-150.166819560642,9.93054018254386
0.1,0.254,0.5,40.35,-2.23405201852415,-16.526423033701,1261.01943682505,3.78052016663163,60.0397173133099,-146.641666893229,24.8990200716909
0.1,0.254,0.5,40.4,-2.74171272512489,-19.4461070492386,1262.87825188726,3.78086232973323,60.0726667022918,-137.893998245468,59.3351538297567
0.1,0.254,0.5,40.45,-3.44865459872915,-18.6431368196452,1264.79658531837,3.78720493138974,60.1078917075792,-127.5054437369,98.0842261572704
0.1,0.254,0.5,40.5,-4.21480171586831,-16.5925387160725,1266.75338797486,3.79574753386255,60.1448852140474,-118.618856646599,119.649884320519
0.1,0.254,0.5,40.55,-4.96837543631627,-15.215978770971,1268.73263363292,3.80430599809446,60.1832790828335,-112.389886152983,130.345189311234
0.1,0.254,0.5,40.6,-5.7404048879406,-14.5685900200319,1270.72511610808,3.81229951215169,60.2228010702816,-108.844256489306,136.389951009589
0.1,0.254,0.5,40.65,-6.67233329592051,-14.4548803375097,1272.72584159997,3.81970698703287,60.2632468034097,-107.471377434716,141.506179412315
0.1,0.254,0.5,40.7,-8.03913262662318,-14.5009407477184,1274.73202478928,3.82662718774294,60.3044607909461,-106.900426918997,149.019243670096
0.1,0.254,0.5,40.75,-10.0676927419262,-13.8312651108943,1276.74203930135,3.83316453476884,60.3463232495645,-101.600628325557,159.276338743854
0.1,0.254,0.5,40.8,-11.464839603645,-12.1218369057262,1278.75489091298,3.83940544397537,60.3887408191796,-85.1928868103769,164.797952655611
0.1,0.254,0.5,40.85,-10.4873439144075,-10.5014575701304,1280.76994428901,3.84541620127235,60.4316399383115,-69.20828603223,162.463748716672
0.1,0.254,0.5,40.9,-8.92358707643903,-9.52810704785439,1282.78677621773,3.85124616138724,60.4749620841028,-64.4853385074756,156.893486171312
0.1,0.254,0.5,40.95,-7.85019504841887,-9.03381330234197,1284.8050946205,3.85693199260478,60.5186605105064,-65.0968588468163,151.217466752433
0.1,0.254,0.5,41,-7.18891591191336,-8.79701595420219,1286.8246926461,3.86250154657442,60.5626447514002,-67.1766576891726,146.24577210579
0.2,0.254,0.5,37,-24.3026625533031,-0.430814033543563,1180.610371552,3.09363369485872,70.7206415432152,3.40964355022671,-92.0938423505559
0.2,0.254,0.5,37.05,-24.3876651936056,-0.433901788645428,1182.32830800983,3.09823099582743,70.7574463137387,2.16420704523083,-93.5285487272489
0.2,0.254,0.5,37.1,-24.481323664752,-0.436300106236302,1184.04707716072,3.10283602371145,70.7946704216188,0.909804765162504,-94.9541384135116
0.2,0.254,0.5,37.15,-24.5840646365258,-0.438075468281776,1185.76668418893,3.10744883527751,70.8323199785325,-0.352453883766733,-96.3710508969039
0.2,0.254,0.5,37.2,-24.6963361448835,-0.439289937324796,1187.48713430398,3.11206948733041,70.870401180491,-1.62134740943336,-97.7797144403112
0.2,0.254,0.5,37.25,-24.8186096668234,-0.440001414536042,1189.20843274074,3.11669803670755,70.9089203075074,-2.89553537922682,-99.1805455864631
0.2,0.254,0.5,37.3,-24.951382603147,-0.440263884954467,1190.93058475966,3.12133454027357,70.9478837231116,-4.17355068070557,-100.573948756751
0.2,0.254,0.5,37.35,-25.0951812499907,-0.440127650049967,1192.65359564686,3.12597905491474,70.9872978736955,-5.45379060014294,-101.96031593379
0.2,0.254,0.5,37.4,-25.2505643549285,-0.439639547834935,1194.3774707143,3.13063163753347,71.0271692876751,-6.73450633435074,-103.340026418087
0.2,0.254,0.5,37.45,-25.418127371565,-0.438843160827312,1196.10221529996,3.13529234504252,71.0675045744526,-8.01379044070966,-104.713446650015
0.2,0.254,0.5,37.5,-25.5985075487445,-0.43777901222712,1197.82783476799,3.13996123435933,71.1083104231595,-9.289561589583,-106.080930089142
0.2,0.254,0.5,37.55,-25.7923900179895,-0.436484750714043,1199.55433450884,3.14463836240016,71.1495936011633,-10.5595458023728,-107.44281714372
0.2,0.254,0.5,37.6,-26.0005150771279,-0.434995324306759,1201.28171993945,3.14932378607419,71.191360952317,-11.8212531236166,-108.79943514386
0.2,0.254,0.5,37.65,-26.2236869113466,-0.433343143748108,1203.0099965034,3.15401756227754,71.2336193949266,-13.0719483672745,-110.151098352611
0.2,0.254,0.5,37.7,-26.4627840479001,-0.431558235894577,1204.73916967109,3.15871974788719,71.2763759194163,-14.3086141680044,-111.498108009755
0.2,0.254,0.5,37.75,-26.7187719110544,-0.429668387596048,1206.46924493986,3.16343039975485,71.3196375856625,-15.5279040179421,-112.840752403736
0.2,0.254,0.5,37.8,-26.9927179344552,-0.427699280553263,1208.20022783419,3.16814957470071,71.3634115199701,-16.7260822203595,-114.17930696764
0.2,0.254,0.5,37.85,-27.285809805438,-0.42567461763709,1209.93212390586,3.17287732950715,71.4077049116603,-17.8989466584965,-115.514034395635
0.2,0.254,0.5,37.9,-27.5993775684517,-0.423616241146435,1211.66493873411,3.17761372091235,71.4525250092377,-19.041728834252,-116.845184776721
0.2,0.254,0.5,37.95,-27.9349205140676,-0.421544243471344,1213.39867792579,3.18235880560377,71.4978791161016,-20.1489635865475,-118.172995743029
0.2,0.254,0.5,38,-28.2941400407345,-0.419477070615105,1215.13334711559,3.18711264021163,71.5437745857636,-21.2143179614724,-119.497692630256
0.2,0.254,0.5,38.05,-28.6789800172232,-0.417431619014567,1216.86895196613,3.19187528130222,71.5902188165302,-22.2303644233483,-120.819488648183
0.2,0.254,0.5,38.1,-29.0916766171254,-0.415423326082004,1218.60549816818,3.1966467853712,71.6372192456078,-23.1882772539476,-122.13858505946
0.2,0.254,0.5,38.15,-29.5348201671253,-0.413466254875024,1220.34299144082,3.20142720883672,71.6847833425807,-24.0774214410531,-123.455171365147
0.2,0.254,0.5,38.2,-30.0114322667213,-0.411573173283526,1222.08143753163,3.20621660803254,71.7329186022134,-24.8847887357941,-124.769425495708
0.2,0.254,0.5,38.25,-30.5250622913432,-0.409755628104957,1223.82084221682,3.21101503920101,71.7816325365192,-25.5942127435047,-126.081514006366
0.2,0.254,0.5,38.3,-31.0799082980032,-0.408024014361257,1225.56121130147,3.21582255848594,71.8309326660387,-26.1852586109462,-127.391592275908
0.2,0.254,0.5,38.35,-31.6809680199204,-0.406387640192995,1227.30255061964,3.22063922192547,71.8808265102613,-26.6316239150427,-128.699804708205
0.2,0.254,0.5,38.4,-32.3342252443114,-0.404854787648702,1229.0448660346,3.22546508544469,71.9313215771232,-26.8987895725069,-130.006284935822
0.2,0.254,0.5,38.45,-33.0468732739003,-0.40343276967003,1230.78816343899,3.23030020484834,71.9824253515049,-26.9404940146865,-131.311156025257
0.2,0.254,0.5,38.5,-33.8275648986493,-0.402127983556584,1232.532448755,3.23514463581327,72.0341452826503,-26.6933182514152,-132.614530683424
0.2,0.254,0.5,38.55,-34.6866433144174,-0.400945961177821,1234.27772793455,3.23999843388089,72.086488770419,-26.0681704366925,-133.916511465107
0.2,0.254,0.5,38.6,-35.6362143041956,-0.399891416183541,1236.02400695948,3.24486165444949,72.1394631502794,-24.9365882771692,-135.217190981185
0.2,0.254,0.5,38.65,-36.6896708072662,-0.398968288449128,1237.77129184173,3.24973435276645,72.1930756769422,-23.1083179684632,-136.5166521075
0.2,0.254,0.5,38.7,-37.859622824849,-0.398179785976964,1239.51958862355,3.25461658392037,72.2473335065252,-20.294533727093,-137.814968194296
0.2,0.254,0.5,38.75,-39.1514709044633,-0.397528424461083,1241.26890337763,3.25950840283309,72.3022436771327,-16.0499058668021,-139.112203276206
0.2,0.254,0.5,38.8,-40.5457192903078,-0.397016064708561,1243.01924220736,3.26440986425161,72.3578130877248,-9.6965702158478,-140.408412282803
0.2,0.254,0.5,38.85,-41.9549134976539,-0.396643948097989,1244.77061124697,3.2693210227399,72.4140484751391,-0.297684458984192,-141.703641249761
0.2,0.254,0.5,38.9,-43.1466085596538,-0.396412730242738,1246.52301666174,3.27424193267059,72.4709563891198,13.0200962349935,-142.997927530709
0.2,0.254,0.5,38.95,-43.7199978774859,-0.396322513014722,1248.27646464819,3.27917264821658,72.5285431651969,29.8508179993022,-144.291300009848
0.2,0.254,0.5,39,-43.3798228485499,-0.396372875072822,1250.0309614343,3.28411322334255,72.5868148952447,47.2981231812335,-145.58377931545
0.2,0.254,0.5,39.05,-42.2942603905703,-0.396562901029027,1251.78651327963,3.28906371179631,72.6457773955387,61.9078313163036,-146.875378034341
0.2,0.254,0.5,39.1,-40.878030416689,-0.396891209374853,1253.54312647563,3.29402416710008,72.7054361721124,72.5296929802274,-148.166100927484
0.2,0.254,0.5,39.15,-39.4226497735564,-0.397355979280433,1255.30080734574,3.29899464254167,72.7657963832035,79.8141876828721,-149.455945146765
0.2,0.254,0.5,39.2,-38.0516390108967,-0.397954976369047,1257.05956224565,3.30397519116548,72.826862798561,84.7445711147703,-150.744900453086
0.2,0.254,0.5,39.25,-36.7992832786735,-0.398685577560579,1258.81939756345,3.30896586576346,72.8886397553688,88.0839565144224,-152.032949435874
0.2,0.254,0.5,39.3,-35.665026443574,-0.399544795068695,1260.58031971991,3.31396671886594,72.9511311105203,90.341917580332,-153.320067734068
0.2,0.254,0.5,39.35,-34.6372682666748,-0.400529299627918,1262.3423351686,3.31897780273228,73.0143401889627,91.848512669326,-154.606224258671
0.2,0.254,0.5,39.4,-33.7022922129904,-0.401635443019031,1264.10545039616,3.32399916934147,73.0782697278038,92.8194746283574,-155.891381416917
0.2,0.254,0.5,39.45,-32.8472775220605,-0.402859279953389,1265.86967192248,3.32903087038259,73.1429218158557,93.3989724074994,-157.175495338079
0.2,0.254,0.5,39.5,-32.0611130340511,-0.404196589369583,1267.63500630089,3.33407295724516,73.2082978282615,93.6858336379452,-158.458516100948
0.2,0.254,0.5,39.55,-31.3344367780832,-0.405642895189065,1269.40146011844,3.33912548100929,73.2743983558301,93.7495163164408,-159.740387962968
0.2,0.254,0.5,39.6,-30.6594334131041,-0.407193486570692,1271.16903999603,3.34418849243584,73.3412231286699,93.6399765546105,-161.021049591008
0.2,0.254,0.5,39.65,-30.0295833864766,-0.408843437698213,1272.93775258867,3.34926204195633,73.4087709336917,93.3938989832101,-162.300434293714
0.2,0.254,0.5,39.7,-29.4394297748887,-0.410587627128742,1274.70760458569,3.3543461796628,73.4770395255114,93.0387251904114,-163.578470255382
0.2,0.254,0.5,39.75,-28.8843808501602,-0.412420756725002,1276.47860271097,3.35944095529749,73.5460255302562,92.5953204713548,-164.855080771245
0.2,0.254,0.5,39.8,-28.3605491661027,-0.414337370188986,1278.25075372311,3.36454641824242,73.6157243417415,92.0797791014713,-166.130184484064
0.2,0.254,0.5,39.85,-27.8646224841642,-0.41633187120999,1280.02406441573,3.36966261750884,73.6861300094475,91.5046721686569,-167.403695621888
