"W_50 [mm]","Freq [GHz]","dB(S(1,1)) []","dB(S(2,1)) []","im(Gamma(1:1)) []","re(Gamma(1:1)) []","re(Zo(1:1)) []","ang_deg(S(1,1)) [deg]","ang_deg(S(2,1)) [deg]"
0.5,57,-7.17533197852898,-4.32876524987826,1901.5199150795,4.69396387374781,18.0276152262534,-39.8183146587993,59.458704463107
0.5,57.05,-7.26806697311365,-4.32823091216253,1903.48441403355,4.69756081449573,18.026778446563,-41.3920286838233,58.2314385081363
0.5,57.1,-7.3683883447451,-4.32721649883747,1905.44869456476,4.701159387459,18.0259482860141,-42.9679138099119,56.9998316226652
0.5,57.15,-7.47639668689433,-4.32573199635636,1907.41275756312,4.70475959026095,18.0251279728411,-44.5451377595284,55.7638616894611
0.5,57.2,-7.59219766618271,-4.32378755144399,1909.37660391496,4.70836142053836,18.0243174742584,-46.1229304660914,54.523502885468
0.5,57.25,-7.71590436228446,-4.32139345909558,1911.34023450302,4.71196487594129,18.0235167593538,-47.7005867406389,53.2787254643709
0.5,57.3,-7.84763978200969,-4.31856015117364,1913.30365020643,4.71556995413306,18.0227257976718,-49.2774677251881,52.0294955138127
0.5,57.35,-7.98753954339293,-4.3152981858486,1915.26685190078,4.7191766527901,18.0219445590102,-50.8530010682311,50.775774682631
0.5,57.4,-8.13575472785552,-4.31161823819189,1917.22984045809,4.72278496960186,18.0211730133688,-52.4266797677514,49.5175198726458
0.5,57.45,-8.29245490138577,-4.30753109230979,1919.19261674685,4.7263949022707,18.0204111309311,-53.9980596348429,48.2546828885327
0.5,57.5,-8.45783130917553,-4.30304763551151,1921.15518163203,4.73000644851182,18.0196588820567,-55.5667553362115,46.9872100381039
0.5,57.55,-8.63210025226708,-4.2981788551401,1923.11753597511,4.73361960605313,18.0189162372772,-57.1324349764773,45.7150416738759
0.5,57.6,-8.81550665953482,-4.29293583887408,1925.07968063409,4.73723437263518,18.018183167293,-58.6948131814454,44.4381116650308
0.5,57.65,-9.00832787383143,-4.28732977954033,1927.04161646353,4.74085074601104,18.017459642972,-60.2536426417422,43.1563467867569
0.5,57.7,-9.21087767752106,-4.28137198578874,1929.00334431453,4.74446872394623,18.0167456353478,-61.8087040731005,41.8696660113386
0.5,57.75,-9.42351059014475,-4.27507390038744,1930.96486503476,4.7480883042186,18.0160411156182,-63.3597945459685,40.5779796822146
0.5,57.8,-9.64662647999982,-4.26844712844287,1932.92617946851,4.75170948461825,18.0153460551439,-64.9067141342398,39.281188548347
0.5,57.85,-9.88067554252551,-4.26150347857804,1934.88728845667,4.75533226294745,18.0146604254477,-66.4492508321831,37.9791826315254
0.5,57.9,-10.1261637123833,-4.25425502108351,1936.84819283677,4.7589566370205,18.0139841982129,-67.9871636918504,36.6718398934633
0.5,57.95,-10.3836585941602,-4.2467141683828,1938.80889344297,4.7625826046637,18.0133173452823,-69.5201641423822,35.359024662514
0.5,58,-10.6537960203373,-4.23889378495846,1940.76939110613,4.76621016371521,18.0126598386575,-71.0478954699403,34.0405857712854
0.5,58.05,-10.9372873768312,-4.23080733635479,1942.72968665375,4.769839312025,18.012011650497,-72.5699104648185,32.7163543461165
0.5,58.1,-11.2349278792367,-4.22246909027035,1944.68978091007,4.77347004745471,18.0113727531162,-74.0856472828301,31.3861411770359
0.5,58.15,-11.5476060413255,-4.21389438745781,1946.64967469603,4.77710236787761,18.0107431189854,-75.5944036231003,30.049733582299
0.5,58.2,-11.8763146576319,-4.20510000669912,1948.60936882931,4.78073627117849,18.0101227207293,-77.0953093945326,28.7068916649594
0.5,58.25,-12.2221637328424,-4.19610465730262,1950.56886412434,4.78437175525357,18.0095115311259,-78.5872981270931,27.3573438407095
0.5,58.3,-12.5863959445612,-4.18692964550038,1952.52816139232,4.78800881801043,18.0089095231053,-80.0690774767915,26.0007814978918
0.5,58.35,-12.9704054404253,-4.17759977944374,1954.48726144124,4.79164745736788,18.0083166697491,-81.539099264174,24.6368526354652
0.5,58.4,-13.3757610707469,-4.16814460356555,1956.44616507589,4.79528767125594,18.0077329442888,-82.9955295556818,23.265154319446
0.5,58.45,-13.804235580644,-4.15860009030878,1958.40487309789,4.7989294576157,18.0071583201053,-84.4362193115636,21.8852238158879
0.5,58.5,-14.2578428854084,-4.14901097048476,1960.36338630566,4.80257281439927,18.0065927707279,-85.8586760276242,20.4965283230861
0.5,58.55,-14.7388864117759,-4.13943395964161,1962.32170549452,4.80621773956967,18.006036269833,-87.260036501321,19.0984533823921
0.5,58.6,-15.2500227326022,-4.12994224600919,1964.27983145662,4.80986423110078,18.0054887912435,-88.6370402120608,17.6902903781208
0.5,58.65,-15.7943465538577,-4.12063175739229,1966.23776498101,4.8135122869772,18.0049503089274,-89.9860015893041,16.2712241920497
0.5,58.7,-16.3755058574905,-4.11162993201336,1968.19550685366,4.81716190519425,18.0044207969976,-91.3027772691413,14.8403233260082
0.5,58.75,-16.9978602093852,-4.10310798838047,1970.15305785741,4.82081308375781,18.0039002297101,-92.5827206637664,13.3965371256451
0.5,58.8,-17.6667018575409,-4.09529800516173,1972.11041877207,4.8244658206843,18.0033885814636,-93.8206096469557,11.9387089642837
0.5,58.85,-18.388569974899,-4.08851639928791,1974.06759037438,4.82812011400056,18.0028858267984,-95.0105217776652,10.4656217829758
0.5,58.9,-19.171706420325,-4.0831953718946,1976.02457343806,4.83177596174379,18.0023919403957,-96.1456111146992,8.97610544213348
0.5,58.95,-20.0267328845783,-4.07992291863441,1977.98136873378,4.83543336196146,18.0019068970762,-97.2177027851025,7.46925692039342
0.5,59,-20.9676869038995,-4.07948856288484,1979.93797702923,4.83909231271124,18.0014306717998,-98.2165473007787,5.94485704775147
0.5,59.05,-22.0136653530284,-4.08292298022569,1981.89439908911,4.84275281206094,18.0009632396642,-99.1284220240269,4.40410805659725
0.5,59.1,-23.1915521561296,-4.0914998874649,1983.85063567511,4.84641485808839,18.0005045759043,-99.9334197314255,2.85084037161512
0.5,59.15,-24.5408118108754,-4.1066323716259,1985.80668754601,4.85007844888139,18.0000546558913,-100.59990923348,1.29326352249254
0.5,59.2,-26.1225568223288,-4.12954855316143,1987.7625554576,4.85374358253766,17.9996134551315,-101.072300038524,-0.254022865908692
0.5,59.25,-28.0384560274089,-4.16062156329898,1989.71824016276,4.85741025716469,17.9991809492661,-101.240763968704,-1.76894535259598
0.5,59.3,-30.4758549129875,-4.1983882705229,1991.67374241146,4.86107847087976,17.9987571140695,-100.852620300459,-3.22432247093481
0.5,59.35,-33.839209821841,-4.23875688810091,1993.62906295076,4.86474822180978,17.9983419254491,-99.1748097414501,-4.59638944526769
0.5,59.4,-39.2801057044485,-4.27540742603749,1995.58420252483,4.86841950809129,17.9979353594442,-92.9131019935811,-5.87813005682304
0.5,59.45,-50.5133833213941,-4.30195577047813,1997.53916187498,4.87209232787032,17.997537392225,-35.6387691564035,-7.08836634167728
0.5,59.5,-40.6799513193272,-4.31471458543022,1999.49394173964,4.87576667930237,17.9971480000921,52.0776875476982,-8.2664689432546
0.5,59.55,-34.5613678264211,-4.31387448055379,2001.44854285443,4.87944256055231,17.9967671594755,60.4046298397514,-9.4550963227675
0.5,59.6,-30.9361927226884,-4.30244980769417,2003.40296595211,4.88311996979432,17.9963948469337,62.5225247290243,-10.6848432840002
0.5,59.65,-28.35405699398,-4.28434770080435,2005.35721176265,4.88679890521182,17.9960310391529,63.0988652070605,-11.9697653046881
0.5,59.7,-26.3397720546949,-4.26298791778456,2007.3112810132,4.89047936499738,17.9956757129464,63.0470734543968,-13.3113015028084
0.5,59.75,-24.6811296383801,-4.24081178083759,2009.26517442812,4.89416134735268,17.9953288452534,62.661420243336,-14.7042803304973
0.5,59.8,-23.2654966127456,-4.21934698122812,2011.21889272903,4.89784485048842,17.9949904131386,62.062328773009,-16.1414037930276
0.5,59.85,-22.026234230228,-4.19945941241297,2013.17243663475,4.90152987262426,17.9946603937912,61.3063068937438,-17.6156362410793
0.5,59.9,-20.9208944420536,-4.18159876605041,2015.12580686138,4.90521641198875,17.9943387645242,60.4222674619181,-19.1211343908913
0.5,59.95,-19.9209719458719,-4.16597946746785,2017.07900412229,4.90890446681927,17.9940255027733,59.425968097215,-20.6534176713829
0.5,60,-19.0065607885534,-4.15269820328838,2019.0320291281,4.91259403536194,17.9937205860968,58.3265361016486,-22.2092252352995
0.5,60.05,-18.1633401458581,-4.14180535079608,2020.98488258677,4.91628511587157,17.9934239921739,57.1296994057035,-23.7862842036212
0.5,60.1,-17.3807655306361,-4.13334695344226,2022.93756520354,4.9199777066116,17.993135698805,55.8394935299664,-25.3830831102393
0.5,60.15,-16.6509278890212,-4.12738923709079,2024.89007768097,4.92367180585403,17.9928556839099,54.4592030845566,-26.9986807052789
0.5,60.2,-15.9678038743176,-4.12403336738705,2026.84242071898,4.92736741187933,17.9925839255278,52.9918932863036,-28.6325531359738
0.5,60.25,-15.3267460018067,-4.12342511606731,2028.7945950148,4.93106452297642,17.9923204018161,51.4407105362785,-30.2844727418334
0.5,60.3,-14.7241256707875,-4.12576217718892,2030.74660126307,4.93476313744257,17.99206509105,49.8090474843688,-31.9544092190749
0.5,60.35,-14.1570768249766,-4.13130070538445,2032.69844015575,4.93846325358335,17.9918179716215,48.100625579617,-33.6424440463542
0.5,60.4,-13.6233077538956,-4.140361943761,2034.65011238224,4.94216486971257,17.9915790220388,46.3195252960367,-35.348689819057
0.5,60.45,-13.1209602091914,-4.15333936463658,2036.60161862929,4.94586798415219,17.9913482209255,44.4701813964969,-37.0732067377292
0.5,60.5,-12.6485021781246,-4.17070642644977,2038.5529595811,4.94957259523232,17.9911255470198,42.5573531779922,-38.8159086908617
0.5,60.55,-12.2046452098548,-4.19302476172799,2040.50413591929,4.95327870129107,17.990910979174,40.586075328351,-40.576451140043
0.5,60.6,-11.7882801692813,-4.2209522823431,2042.45514832289,4.95698630067458,17.9907044963538,38.5615925852753,-42.3540924444097
0.5,60.65,-11.3984272919524,-4.25525025551334,2044.40599746841,4.96069539173688,17.9905060776373,36.4892801171966,-44.147519535226
0.5,60.7,-11.0341977833799,-4.29678780336406,2046.35668402981,4.96440597283989,17.9903157022144,34.3745510060951,-45.95462829141
0.5,60.75,-10.6947651639872,-4.34654144597552,2048.30720867853,4.96811804235331,17.9901333493864,32.222752118395,-47.7722491178016
0.5,60.8,-10.3793452490621,-4.4055861868926,2050.25757208349,4.97183159865461,17.9899589985649,30.0390498091093,-49.5958099841838
0.5,60.85,-10.0871841725086,-4.47507320899632,2052.20777491112,4.97554664012892,17.9897926292713,27.828307200175,-51.4189339421434
0.5,60.9,-9.81755429370449,-4.55618757046345,2054.15781782536,4.97926316516902,17.9896342211363,25.5949551711802,-53.2329779387293
0.5,60.95,-9.56975823877437,-4.65007760274033,2056.10770148765,4.98298117217525,17.9894837538987,23.3428597710999,-55.0265372879691
0.5,61,-9.34314178896395,-4.75774656229536,2058.057426557,4.98670065955543,17.9893412074054,21.0751897317124,-56.7849684644875
0.5,61.05,-9.13711690751221,-4.87989750087386,2060.00699368995,4.99042162572489,17.9892065616102,18.794289610703,-58.4900242166736
0.5,61.1,-8.95119695685682,-5.016725933756,2061.9564035406,4.9941440691063,17.9890797965733,16.5015676836711,-60.1197485259278
0.5,61.15,-8.78504714415969,-5.16766388594986,2063.90565676062,4.99786798812969,17.9889608924608,14.1974145539865,-61.6488366537473
0.5,61.2,-8.63855442140511,-5.33109542629956,2065.85475399926,5.00159338123239,17.9888498295439,11.8811811195632,-63.049706784899
0.5,61.25,-8.5119222499845,-5.5040884540196,2067.80369590338,5.00532024685892,17.9887465881981,9.55126721524743,-64.2945169909549
0.5,61.3,-8.40579616721715,-5.68221670071545,2069.75248311742,5.00904858346099,17.9886511489031,7.20541141224273,-65.3582428433566
0.5,61.35,-8.32142431472502,-5.85956890964991,2071.70111628347,5.01277838949743,17.9885634922413,4.84133701276371,-66.222661685873
0.5,61.4,-8.26084929555826,-6.02904035762545,2073.64959604121,5.01650966343412,17.9884835988981,2.45800826119939,-66.8806747698543
0.5,61.45,-8.22710640241355,-6.18295495392334,2075.597923028,5.02024240374394,17.9884114496604,0.0578831634179435,-67.3399510674311
0.5,61.5,-8.2243552061384,-6.31396771206884,2077.54609787881,5.02397660890673,17.9883470254169,-2.34932640921326,-67.6246363480264
0.5,61.55,-8.25777927334968,-6.41607391269832,2079.49412122631,5.02771227740923,17.9882903071565,-4.74091330499498,-67.7741132630293
0.5,61.6,-8.33294669665826,-6.48546446465536,2081.44199370081,5.03144940774504,17.9882412759685,-7.07355953063417,-67.838617275257
0.5,61.65,-8.45419174796103,-6.52098127685619,2083.38971593034,5.0351879984145,17.9881999130414,-9.275756843781,-67.8726292059158
0.5,61.7,-8.62168255435308,-6.52405519934229,2085.33728854059,5.03892804792474,17.9881661996627,-11.2457236819448,-67.9277989424636
0.5,61.75,-8.82761110681669,-6.49819006696023,2087.28471215498,5.04266955478957,17.988140117218,-12.8641555784942,-68.0472247051043
0.5,61.8,-9.0535723123491,-6.44819251398561,2089.23198739464,5.04641251752941,17.9881216471908,-14.0293547405828,-68.2622183319426
0.5,61.85,-9.2724802843324,-6.3793789358616,2091.17911487843,5.05015693467128,17.9881107711613,-14.706893404872,-68.5916904235043
0.5,61.9,-9.45652932835445,-6.29693025998837,2093.12609522294,5.05390280474874,17.9881074708065,-14.9627583041812,-69.0435207388863
0.5,61.95,-9.58732816796149,-6.2054683270477,2095.07292904252,5.05765012630182,17.9881117278989,-14.9476452999978,-69.6169869418625
0.5,62,-9.66118798036017,-6.10884655556977,2097.01961694926,5.06139889787698,17.9881235243065,-14.8377880145659,-70.3054335144631
0.5,62.05,-9.68666457387415,-6.01010403157371,2098.96615955306,5.06514911802709,17.988142841992,-14.7750491970602,-71.0986547542696
0.5,62.1,-9.67793983195642,-5.91152221173263,2100.91255746156,5.06890078531131,17.9881696630123,-14.8405624285541,-71.9847570330905
0.5,62.15,-9.64904603096359,-5.81473278771375,2102.85881128022,5.07265389829511,17.9882039695175,-15.0611710357388,-72.9514692803399
0.5,62.2,-9.61100011645226,-5.72084105568428,2104.80492161228,5.07640845555018,17.9882457437511,-15.4293893537265,-73.9869778550133
0.5,62.25,-9.57128466761435,-5.63054387468974,2106.7508890588,5.08016445565442,17.9882949680489,-15.9218186183458,-75.0803985676116
0.5,62.3,-9.53444226137522,-5.54423216909239,2108.69671421867,5.08392189719183,17.9883516248385,-16.5109548919867,-76.2219954413537
0.5,62.35,-9.50292916013271,-5.4620747957401,2110.6423976886,5.08768077875254,17.9884156966387,-17.17111287426,-77.4032358239615
0.5,62.4,-9.47785518960877,-5.38408436323197,2112.58794006315,5.09144109893267,17.9884871660595,-17.8806575488781,-78.6167480161567
0.5,62.45,-9.45951894630808,-5.31016731330921,2114.53334193473,5.09520285633439,17.9885660158006,-18.6223473183036,-79.8562268412997
0.5,62.5,-9.44776052556662,-5.24016110195838,2116.47860389361,5.09896604956578,17.9886522286517,-19.3828800646263,-81.1163165012333
0.5,62.55,-9.44218113318917,-5.17386122686599,2118.42372652794,5.10273067724082,17.9887457874916,-20.15219968453,-82.3924885664964
0.5,62.6,-9.44227430243424,-5.11104048820446,2120.36871042374,5.10649673797936,17.9888466752875,-20.9228101079781,-83.6809251925717
0.5,62.65,-9.44750140667554,-5.05146243384676,2122.31355616493,5.11026423040705,17.988954875095,-21.6891865485817,-84.9784126661693
0.5,62.7,-9.45733320757548,-4.99489052275871,2124.25826433334,5.1140331531553,17.9890703700568,-22.4473023791338,-86.2822473234536
0.5,62.75,-9.47127119258247,-4.94109418053085,2126.20283550869,5.11780350486123,17.989193143403,-23.1942617132371,-87.5901540991462
0.5,62.8,-9.48885715407733,-4.8898526285717,2128.14727026864,5.12157528416762,17.9893231784501,-23.9280192422295,-88.9002170004979
0.5,62.85,-9.50967610829989,-4.8409571394071,2130.09156918877,5.12534848972291,17.9894604586004,-24.6471685920821,-90.2108203397895
0.5,62.9,-9.53335558592682,-4.79421219548522,2132.03573284259,5.12912312018109,17.9896049673419,-25.3507830880719,-91.5205993975868
0.5,62.95,-9.55956307315022,-4.7494358974422,2133.9797618016,5.13289917420167,17.9897566882474,-26.0382960493735,-92.828399195687
0.5,63,-9.5880026298884,-4.70645987033049,2135.92365663521,5.13667665044968,17.9899156049741,-26.7094106997674,-94.1332401525562
0.55,57,-7.11892367824416,-4.45198864834599,1927.28204824829,4.63366020759322,16.3647346570853,-41.9490997450512,-122.143263817199
0.55,57.05,-7.22012614770641,-4.45037973558136,1929.22268005909,4.63738993729821,16.3648458200642,-43.5319647783631,-123.328872664107
0.55,57.1,-7.32970544207014,-4.44810191181835,1931.16315903587,4.64112122879848,16.3649650042652,-45.1145584519467,-124.522173913242
0.55,57.15,-7.44774884823061,-4.44516986780311,1933.10348587851,4.64485408050471,16.3650921896414,-46.69549321188,-125.723156027789
0.55,57.2,-7.57434116015227,-4.44159939369162,1935.04366128418,4.64858849083528,16.3652273562601,-48.2734512514178,-126.931810861484
0.55,57.25,-7.70956730200018,-4.43740740667454,1936.98368594728,4.65232445821629,16.3653704843022,-49.8471928054248,-128.148133964838
0.55,57.3,-7.85351524107719,-4.43261198257516,1938.92356055953,4.65606198108142,16.3655215540614,-51.4155629745031,-129.372124903746
0.55,57.35,-8.00627918208774,-4.42723239239179,1940.86328580992,4.65980105787188,16.3656805459436,-52.9774969479371,-130.603787591619
0.55,57.4,-8.1679630372853,-4.42128914493851,1942.80286238477,4.66354168703639,16.365847440466,-54.5320235185543,-131.843130636162
0.55,57.45,-8.33868417176263,-4.41480403695652,1944.74229096772,4.66728386703107,16.3660222182564,-56.078266802296,-133.090167701963
0.55,57.5,-8.518577429526,-4.40780021233183,1946.68157223975,4.67102759631937,16.3662048600527,-57.6154460886575,-134.344917889913
0.55,57.55,-8.70779945406221,-4.40030223237135,1948.62070687919,4.67477287337205,16.3663953467019,-59.1428737532577,-135.607406134288
0.55,57.6,-8.90653332688167,-4.39233615947275,1950.55969556174,4.6785196966671,16.3665936591593,-60.6599511587058,-136.877663617878
0.55,57.65,-9.11499355904935,-4.38392965698677,1952.49853896047,4.68226806468965,16.3667997784884,-62.1661624527189,-138.155728204929
0.55,57.7,-9.33343148410936,-4.37511210863292,1954.43723774586,4.68601797593194,16.3670136858594,-63.6610661410603,-139.441644890589
0.55,57.75,-9.56214111624854,-4.36591476151187,1956.37579258577,4.68976942889327,16.367235362549,-65.144284264959,-140.735466264038
0.55,57.8,-9.80146555532889,-4.35637089758705,1958.3142041455,4.69352242207989,16.3674647899398,-66.6154889454519,-142.037252980225
0.55,57.85,-10.0518040409761,-4.34651603951474,1960.25247308776,4.69727695400498,16.3677019495191,-68.0743859670049,-143.347074231874
0.55,57.9,-10.3136197818542,-4.33638819792411,1962.19060007273,4.70103302318858,16.3679468228789,-69.520694955206,-144.665008208792
0.55,57.95,-10.587448714429,-4.32602816872758,1964.12858575802,4.70479062815754,16.3681993917145,-70.954125552213,-145.991142524983
0.55,58,-10.8739093790729,-4.31547989082648,1966.06643079873,4.70854976744543,16.3684596378244,-72.3743488008434,-147.3255745848
0.55,58.05,-11.1737141418601,-4.30479087671599,1968.00413584743,4.71231043959251,16.3687275431095,-73.7809627028082,-148.668411846494
0.55,58.1,-11.4876820399822,-4.29401273103573,1969.94170155418,4.71607264314568,16.3690030895721,-75.1734506039161,-150.019771923405
0.55,58.15,-11.8167535903548,-4.28320177509284,1971.87912856655,4.71983637665839,16.3692862593157,-76.5511306591191,-151.379782437837
0.55,58.2,-12.1620079788464,-4.27241979880903,1973.81641752964,4.72360163869059,16.3695770345441,-77.913094115598,-152.748580507562
0.55,58.25,-12.524683147628,-4.26173496535495,1975.75356908607,4.72736842780872,16.369875397561,-79.2581294845081,-154.12631169605
0.55,58.3,-12.9061994291132,-4.25122289776023,1977.690583876,4.73113674258557,16.3701813307689,-80.5846287973983,-155.513128189786
0.55,58.35,-13.3081875497857,-4.24096798064403,1979.62746253715,4.7349065816003,16.3704948166688,-81.8904709830626,-156.909185872172
0.55,58.4,-13.7325220654668,-4.23106491315038,1981.5642057048,4.73867794343835,16.3708158378597,-83.1728758375892,-158.314639834048
