W_50 [mm],Freq [GHz],"dB(S(1,1)) []","dB(S(2,1)) []",im(Gamma(1)) [],re(Gamma(1)) [],re(Zo(1)) [],"ang_deg(S(1,1)) [deg]","ang_deg(S(2,1)) [deg]"
0.5,57,-16.83973719,-5.937941948,1864.820923,5.539128596,163.2765293,-143.7510024,45.19595343
0.5,57.05,-16.70377084,-6.016933659,1867.194371,5.541858863,163.2259877,-147.1971204,43.58291188
0.5,57.1,-16.58283619,-6.093294706,1869.566901,5.544593517,163.1756944,-150.7028033,41.99431767
0.5,57.15,-16.47814996,-6.167010171,1871.938518,5.547332538,163.1256479,-154.255393,40.42857916
0.5,57.2,-16.39066896,-6.238074099,1874.309225,5.550075902,163.075847,-157.8406289,38.88417466
0.5,57.25,-16.32103511,-6.306488405,1876.679025,5.552823587,163.0262903,-161.4429784,37.35964908
0.5,57.3,-16.269533,-6.372261938,1879.047922,5.555575571,162.9769767,-165.046063,35.85361059
0.5,57.35,-16.23606432,-6.435409652,1881.41592,5.558331831,162.9279048,-168.6331527,34.36472716
0.5,57.4,-16.22014181,-6.495951893,1883.783021,5.561092347,162.8790734,-172.1876928,32.89172317
0.5,57.45,-16.22090346,-6.553913785,1886.14923,5.563857096,162.8304812,-175.6938211,31.43337605
0.5,57.5,-16.23714522,-6.609324706,1888.514549,5.566626056,162.782127,-179.1368383,29.98851302
0.5,57.55,-16.26736887,-6.662217843,1890.878982,5.569399207,162.7340095,177.4964033,28.55600796
0.5,57.6,-16.30984006,-6.712629815,1893.242533,5.572176526,162.6861275,174.2172118,27.13477837
0.5,57.65,-16.36265141,-6.760600369,1895.605204,5.574957994,162.6384798,171.0348797,25.72378252
0.5,57.7,-16.42378545,-6.806172132,1897.966999,5.577743588,162.5910652,167.956613,24.32201666
0.5,57.75,-16.49117339,-6.849390407,1900.327922,5.580533288,162.5438825,164.9875563,22.92851252
0.5,57.8,-16.56274659,-6.890303034,1902.687975,5.583327074,162.4969304,162.130891,21.54233482
0.5,57.85,-16.63647906,-6.92896028,1905.047162,5.586124925,162.4502079,159.3879879,20.16257908
0.5,57.9,-16.71042052,-6.965414777,1907.405487,5.58892682,162.4037137,156.7585905,18.78836947
0.5,57.95,-16.7827203,-6.9997215,1909.762951,5.591732739,162.3574467,154.2410127,17.41885694
0.5,58,-16.85164306,-7.031937769,1912.11956,5.594542662,162.3114057,151.8323335,16.05321743
0.5,58.05,-16.9155779,-7.062123299,1914.475315,5.59735657,162.2655895,149.5285809,14.6906503
0.5,58.1,-16.97304197,-7.090340265,1916.83022,5.600174442,162.219997,147.3248956,13.33037692
0.5,58.15,-17.02268045,-7.116653407,1919.184278,5.602996259,162.1746272,145.215673,11.97163945
0.5,58.2,-17.06326388,-7.141130161,1921.537492,5.605822,162.1294787,143.1946806,10.6136998
0.5,58.25,-17.09368405,-7.163840811,1923.889866,5.608651648,162.0845506,141.2551541,9.255838773
0.5,58.3,-17.11294942,-7.184858677,1926.241403,5.611485182,162.0398417,139.3898725,7.897355436
0.5,58.35,-17.12018061,-7.204260318,1928.592105,5.614322583,161.9953509,137.5912152,6.537566684
0.5,58.4,-17.1146066,-7.222125766,1930.941976,5.617163833,161.9510772,135.8512056,5.175807045
0.5,58.45,-17.09556183,-7.238538786,1933.291018,5.620008912,161.9070194,134.161543,3.811428724
0.5,58.5,-17.06248457,-7.253587153,1935.639236,5.622857802,161.8631764,132.5136262,2.443801917
0.5,58.55,-17.0149166,-7.267362958,1937.986631,5.625710484,161.8195472,130.898573,1.072315409
0.5,58.6,-16.95250422,-7.279962935,1940.333208,5.628566939,161.7761307,129.3072357,-0.303622511
0.5,58.65,-16.87500065,-7.291488811,1942.678968,5.63142715,161.7329259,127.7302181,-1.68458279
0.5,58.7,-16.78226976,-7.302047676,1945.023915,5.634291097,161.6899316,126.1578933,-3.071113972
0.5,58.75,-16.67429105,-7.311752378,1947.368053,5.637158764,161.6471469,124.5804264,-4.463740139
0.5,58.8,-16.55116573,-7.320721928,1949.711383,5.640030131,161.6045708,122.9878035,-5.862958377
0.5,58.85,-16.41312397,-7.329081933,1952.053909,5.642905181,161.5622021,121.3698684,-7.269235738
0.5,58.9,-16.26053299,-7.336965035,1954.395633,5.645783897,161.5200399,119.7163697,-8.683005609
0.5,58.95,-16.09390597,-7.34451137,1956.736559,5.64866626,161.4780831,118.0170213,-10.10466345
0.5,59,-15.91391146,-7.351869023,1959.07669,5.651552253,161.4363308,116.261577,-11.5345618
0.5,59.05,-15.72138302,-7.359194501,1961.416028,5.654441859,161.3947819,114.4399248,-12.97300449
0.5,59.1,-15.51732853,-7.366653191,1963.754577,5.65733506,161.3534354,112.542201,-14.42023997
0.5,59.15,-15.30293866,-7.374419809,1966.092339,5.660231839,161.3122904,110.5589301,-15.8764536
0.5,59.2,-15.07959348,-7.382678835,1968.429316,5.66313218,161.2713459,108.4811916,-17.34175889
0.5,59.25,-14.84886606,-7.391624906,1970.765513,5.666036065,161.2306009,106.3008161,-18.81618738
0.5,59.3,-14.61252163,-7.40146317,1973.100931,5.668943477,161.1900543,104.0106113,-20.29967731
0.5,59.35,-14.37251043,-7.412409571,1975.435574,5.6718544,161.1497054,101.6046158,-21.79206055
0.5,59.4,-14.13095248,-7.424691051,1977.769444,5.674768817,161.109553,99.07837396,-23.29304801
0.5,59.45,-13.89011192,-7.438545632,1980.102544,5.677686711,161.0695964,96.4292209,-24.80221303
0.5,59.5,-13.65235959,-7.454222365,1982.434876,5.680608067,161.0298344,93.65656111,-26.31897281
0.5,59.55,-13.42012231,-7.471981077,1984.766445,5.683532868,160.9902662,90.76211666,-27.8425675
0.5,59.6,-13.19581918,-7.492091898,1987.097251,5.686461098,160.9508908,87.75011667,-29.37203695
0.5,59.65,-12.98178621,-7.514834474,1989.427298,5.68939274,160.9117074,84.62739645,-30.90619482
0.5,59.7,-12.78019273,-7.540496809,1991.756589,5.692327779,160.8727149,81.40337557,-32.44360009
0.5,59.75,-12.59295509,-7.569373625,1994.085127,5.695266199,160.8339126,78.08989063,-33.98252579
0.5,59.8,-12.42165444,-7.601764103,1996.412913,5.698207984,160.7952994,74.70087109,-35.52092537
0.5,59.85,-12.2674667,-7.637968841,1998.739951,5.701153119,160.7568745,71.25186352,-37.05639674
0.5,59.9,-12.13111201,-7.678285776,2001.066244,5.704101588,160.718637,67.75942952,-38.58614517
0.5,59.95,-12.01282981,-7.723004769,2003.391793,5.707053375,160.680586,64.24046105,-40.1069461
0.5,60,-11.91238278,-7.772400398,2005.716602,5.710008465,160.6427206,60.71146957,-41.61511016
0.5,60.05,-11.8290894,-7.82672235,2008.040673,5.712966844,160.6050399,57.18790965,-43.10645397
0.5,60.1,-11.76188204,-7.886182542,2010.364009,5.715928495,160.5675431,53.68359261,-44.57628161
0.5,60.15,-11.70938458,-7.950937775,2012.686612,5.718893404,160.5302293,50.21023208,-46.01938437
0.5,60.2,-11.67000241,-8.021066261,2015.008485,5.721861556,160.4930976,46.77714543,-47.43006879
0.5,60.25,-11.6420179,-8.096535786,2017.329631,5.724832935,160.4561473,43.39111668,-48.80222669
0.5,60.3,-11.62368527,-8.177160687,2019.650052,5.727807528,160.4193773,40.05641194,-50.12946418
0.5,60.35,-11.61332104,-8.262544373,2021.96975,5.73078532,160.382787,36.77493051,-51.40530943
0.5,60.4,-11.60938845,-8.35200434,2024.288728,5.733766295,160.3463753,33.54647561,-52.62352116
0.5,60.45,-11.61057617,-8.444478339,2026.606989,5.73675044,160.3101417,30.36913841,-53.77851901
0.5,60.5,-11.61587323,-8.538414832,2028.924536,5.73973774,160.2740851,27.2398104,-54.86595684
0.5,60.55,-11.62464174,-8.63165962,2031.241369,5.742728181,160.2382047,24.15487344,-55.88346103
0.5,60.6,-11.63668583,-8.721364162,2033.557493,5.745721749,160.2024999,21.11116956,-56.83156492
0.5,60.65,-11.65230553,-8.803958327,2035.872909,5.748718429,160.1669696,18.10742795,-57.71488443
0.5,60.7,-11.67230014,-8.875246246,2038.187621,5.751718208,160.1316132,15.14641798,-58.54357736
0.5,60.75,-11.69783294,-8.930690195,2040.501629,5.754721071,160.0964299,12.23815061,-59.33505658
0.5,60.8,-11.72996628,-8.965934391,2042.814938,5.757727005,160.0614187,9.404260522,-60.11571389
0.5,60.85,-11.76851728,-8.977579164,2045.127549,5.760735995,160.0265791,6.682684969,-60.92203568
0.5,60.9,-11.80978611,-8.964140029,2047.439464,5.763748029,159.99191,4.128727903,-61.8000757
0.5,60.95,-11.84318089,-8.927018314,2049.750686,5.766763093,159.9574109,1.802738551,-62.8021004
0.5,61,-11.84882325,-8.871196898,2052.061218,5.769781173,159.9230809,-0.268919785,-63.97971632
0.5,61.05,-11.80149105,-8.805322064,2054.371062,5.772802256,159.8889192,-2.154402152,-65.37408025
0.5,61.1,-11.68432991,-8.740924645,2056.68022,5.775826328,159.854925,-4.04167916,-67.00549513
0.5,61.15,-11.50253356,-8.690802948,2058.988694,5.778853377,159.8210977,-6.162780355,-68.86585256
0.5,61.2,-11.28063914,-8.666943333,2061.296487,5.781883388,159.7874364,-8.668066343,-70.91700246
0.5,61.25,-11.04636961,-8.678591944,2063.603601,5.78491635,159.7539404,-11.57892006,-73.09603125
0.5,61.3,-10.81873345,-8.731044905,2065.910038,5.787952248,159.7206089,-14.83586381,-75.32565396
0.5,61.35,-10.60673993,-8.825407634,2068.215802,5.790991071,159.6874413,-18.36207088,-77.52610253
0.5,61.4,-10.41315961,-8.959183787,2070.520893,5.794032804,159.6544367,-22.09561922,-79.62497473
0.5,61.45,-10.23813486,-9.127310504,2072.825315,5.797077436,159.6215945,-25.99509319,-81.56310401
0.5,61.5,-10.08122178,-9.323240111,2075.129069,5.800124954,159.5889138,-30.03452108,-83.29640804
0.5,61.55,-9.94221291,-9.539806868,2077.432158,5.803175345,159.5563941,-34.19685268,-84.79488827
0.5,61.6,-9.821308055,-9.769787099,2079.734584,5.806228596,159.5240345,-38.46897816,-86.04025278
0.5,61.65,-9.719001719,-10.00618149,2082.03635,5.809284696,159.4918343,-42.83863384,-87.02333473
0.5,61.7,-9.635875858,-10.2423024,2084.337457,5.812343631,159.4597929,-47.29282688,-87.74199146
0.5,61.75,-9.572388152,-10.47175575,2086.637907,5.81540539,159.4279095,-51.81735758,-88.19975237
0.5,61.8,-9.528700249,-10.68839184,2088.937704,5.818469961,159.3961834,-56.39709658,-88.4052107
0.5,61.85,-9.504569005,-10.88627846,2091.236849,5.82153733,159.364614,-61.0167377,-88.37200528
0.5,61.9,-9.499310703,-11.0597301,2093.535344,5.824607486,159.3332005,-65.66178182,-88.1191635
0.5,61.95,-9.51183734,-11.20340962,2095.833192,5.827680417,159.3019422,-70.31953343,-87.67154178
0.5,62,-9.540754203,-11.31250168,2098.130394,5.830756112,159.2708385,-74.97992713,-87.06009213
0.5,62.05,-9.584500373,-11.38294024,2100.426953,5.833834557,159.2398887,-79.63605338,-86.32170852
0.5,62.1,-9.641509736,-11.41165633,2102.722871,5.836915742,159.2090921,-84.28431513,-85.49847643
0.5,62.15,-9.71037001,-11.39680183,2105.018151,5.839999655,159.178448,-88.92420943,-84.63626632
0.5,62.2,-9.789960536,-11.33790331,2107.312793,5.843086284,159.1479558,-93.55777898,-83.78276062
0.5,62.25,-9.879554668,-11.23591074,2109.606801,5.846175617,159.1176148,-98.18881227,-82.98514585
0.5,62.3,-9.978878234,-11.09312672,2111.900176,5.849267643,159.0874243,-102.821888,-82.28778992
0.5,62.35,-10.08812065,-10.91302668,2114.192921,5.852362351,159.0573837,-107.4613626,-81.73022907
0.5,62.4,-10.20789953,-10.70000136,2116.485037,5.855459729,159.0274923,-112.1103943,-81.34570807
0.5,62.45,-10.33918304,-10.45906387,2118.776527,5.858559766,158.9977495,-116.770091,-81.16038495
0.5,62.5,-10.48317755,-10.19556211,2121.067393,5.861662451,158.9681547,-121.4388535,-81.19317501
0.5,62.55,-10.64119048,-9.914927877,2123.357637,5.864767772,158.9387071,-126.1119752,-81.45610718
0.5,62.6,-10.81448131,-9.622479421,2125.64726,5.867875718,158.9094062,-130.7815382,-81.95501812
0.5,62.65,-11.00411508,-9.323281309,2127.936266,5.870986279,158.8802512,-135.436616,-82.69041076
0.5,62.7,-11.21083327,-9.022055713,2130.224655,5.874099443,158.8512418,-140.0637661,-83.65833753
0.5,62.75,-11.43495546,-8.723134012,2132.51243,5.8772152,158.8223771,-144.6477555,-84.8512155
0.5,62.8,-11.67632144,-8.430436202,2134.799593,5.880333538,158.7936565,-149.1724381,-86.25852649
0.5,62.85,-11.93427797,-8.147466746,2137.086147,5.883454447,158.7650795,-153.6216808,-87.86739112
0.5,62.9,-12.20770838,-7.877318008,2139.372092,5.886577916,158.7366453,-157.9802378,-89.66303059
0.5,62.95,-12.49509789,-7.6226754,2141.657431,5.889703935,158.7083534,-162.2344847,-91.62914318
0.5,63,-12.79462328,-7.385821188,2143.942166,5.892832493,158.6801634,-166.3729563,-93.74822671
0.55,57,-15.96601509,-5.842745017,1931.27515,5.285613284,143.4848574,-145.9280558,49.11780302
0.55,57.05,-15.87494126,-5.915652927,1933.56118,5.288686404,143.453997,-149.217726,47.52573003
0.55,57.1,-15.79408754,-5.984087426,1935.846533,5.29176244,143.4232937,-152.565064,45.95722114
0.55,57.15,-15.72425963,-6.048225141,1938.131212,5.29484138,143.3927468,-155.9627369,44.4101371
0.55,57.2,-15.66615485,-6.108237868,1940.415218,5.297923211,143.3623554,-159.4024472,42.88247055
0.55,57.25,-15.62033577,-6.164292694,1942.698555,5.301007919,143.332119,-162.8750365,41.37233294
0.55,57.3,-15.5872066,-6.2165522,1944.981224,5.304095492,143.3020367,-166.3706293,39.87794289
0.55,57.35,-15.56699431,-6.26517474,1947.263229,5.307185917,143.2721078,-169.8788125,38.39761584
0.55,57.4,-15.55973549,-6.310314773,1949.544571,5.31027918,143.2423316,-173.3888413,36.92975479
0.55,57.45,-15.56527023,-6.352123245,1951.825253,5.31337527,143.2127073,-176.8898617,35.47284211
0.55,57.5,-15.58324323,-6.390747996,1954.105277,5.316474173,143.1832344,179.6288633,34.0254322
0.55,57.55,-15.61311212,-6.426334213,1956.384645,5.319575876,143.153912,176.1777368,32.58614506
0.55,57.6,-15.6541622,-6.459024898,1958.663361,5.322680368,143.1247394,172.7666316,31.15366058
0.55,57.65,-15.70552645,-6.48896136,1960.941426,5.325787636,143.095716,169.4047245,29.72671354
0.55,57.7,-15.76620918,-6.516283725,1963.218842,5.328897668,143.066841,166.1003676,28.30408932
0.55,57.75,-15.83511178,-6.541131472,1965.495612,5.33201045,143.0381139,162.8610002,26.88462013
0.55,57.8,-15.91105869,-6.563643973,1967.771738,5.335125972,143.0095338,159.6931005,25.46718196
0.55,57.85,-15.99282243,-6.583961058,1970.047223,5.338244221,142.9811,156.6021749,24.05069197
0.55,57.9,-16.07914605,-6.602223587,1972.322068,5.341365185,142.9528121,153.5927789,22.63410658
0.55,57.95,-16.16876257,-6.618574045,1974.596276,5.344488852,142.9246691,150.6685635,21.21642001
0.55,58,-16.26041055,-6.633157141,1976.869849,5.347615209,142.8966706,147.8323394,19.79666344
0.55,58.05,-16.35284568,-6.646120426,1979.14279,5.350744246,142.8688158,145.0861528,18.37390481
0.55,58.1,-16.44484847,-6.657614919,1981.4151,5.353875951,142.841104,142.4313642,16.94724909
0.55,58.15,-16.53522815,-6.667795742,1983.686782,5.357010312,142.8135346,139.8687274,15.51583936
0.55,58.2,-16.62282324,-6.676822764,1985.957838,5.360147317,142.786107,137.3984599,14.07885846
0.55,58.25,-16.70649918,-6.684861241,1988.228271,5.363286954,142.7588205,135.020304,12.63553143
0.55,58.3,-16.78514356,-6.69208246,1990.498081,5.366429213,142.7316745,132.7335734,11.18512876
0.55,58.35,-16.85765939,-6.698664371,1992.767272,5.369574082,142.7046682,130.537183,9.726970458
0.55,58.4,-16.92295711,-6.704792201,1995.035846,5.37272155,142.6778012,128.42966,8.260431183
0.55,58.45,-16.97994565,-6.710659031,1997.303805,5.375871605,142.6510727,126.4091334,6.784946345
0.55,58.5,-17.02752347,-6.716466341,1999.571151,5.379024236,142.6244822,124.4733013,5.300019436
0.55,58.55,-17.06456986,-6.72242448,2001.837886,5.382179433,142.5980289,122.6193734,3.805230642
0.55,58.6,-17.08993771,-6.728753045,2004.104012,5.385337183,142.5717123,120.8439877,2.300246903
0.55,58.65,-17.1024483,-6.735681153,2006.369531,5.388497477,142.5455318,119.1430994,0.784833583
0.55,58.7,-17.10088944,-6.743447537,2008.634446,5.391660303,142.5194868,117.5118433,-0.741132091
0.55,58.75,-17.08401822,-6.752300439,2010.898758,5.394825651,142.4935766,115.944369,-2.277645605
0.55,58.8,-17.05056991,-6.762497224,2013.16247,5.397993509,142.4678007,114.4336514,-3.824557564
0.55,58.85,-16.99927474,-6.774303632,2015.425584,5.401163867,142.4421584,112.9712834,-5.381553695
0.55,58.9,-16.92888461,-6.787992558,2017.688101,5.404336715,142.4166491,111.5472582,-6.948132244
0.55,58.95,-16.83821147,-6.803842211,2019.950024,5.407512042,142.3912724,110.1497563,-8.523578557
0.55,59,-16.72617923,-6.822133482,2022.211355,5.410689837,142.3660274,108.764957,-10.10693671
0.55,59.05,-16.5918902,-6.843146239,2024.472096,5.413870089,142.3409138,107.3769005,-11.69697817
0.55,59.1,-16.43470647,-6.867154252,2026.732249,5.41705279,142.3159309,105.9674363,-13.29216767
0.55,59.15,-16.25434464,-6.894418279,2028.991815,5.420237927,142.2910781,104.5162954,-14.89062693
0.55,59.2,-16.05098063,-6.925176741,2031.250798,5.423425491,142.2663548,103.0013317,-16.4900976
0.55,59.25,-15.82535822,-6.959633209,2033.509198,5.426615473,142.2417605,101.3989765,-18.08790607
0.55,59.3,-15.57889216,-6.997939712,2035.767018,5.42980786,142.2172946,99.68494084,-19.680935
0.55,59.35,-15.31375296,-7.040174627,2038.02426,5.433002645,142.1929566,97.83518791,-21.26561023
0.55,59.4,-15.03291787,-7.08631375,2040.280925,5.436199816,142.1687458,95.82716931,-22.83791786
0.55,59.45,-14.74017034,-7.136193207,2042.537016,5.439399364,142.1446618,93.64127872,-24.39347607
0.55,59.5,-14.44003096,-7.189463592,2044.792535,5.442601278,142.120704,91.26242644,-25.92770157
0.55,59.55,-14.13760656,-7.245536934,2047.047484,5.445805549,142.0968717,88.68157945,-27.43613173
0.55,59.6,-13.83835298,-7.303533313,2049.301864,5.449012168,142.0731646,85.89705778,-28.9149897
0.55,59.65,-13.54776088,-7.362244546,2051.555678,5.452221124,142.0495819,82.91534697,-30.3620996
0.55,59.7,-13.27099121,-7.420151097,2053.808926,5.455432408,142.0261233,79.75120018,-31.77824207
0.55,59.75,-13.01250434,-7.475555246,2056.061612,5.45864601,142.0027881,76.42688025,-33.1689184
0.55,59.8,-12.77573765,-7.526917616,2058.313738,5.461861921,141.9795758,72.97053197,-34.54615277
0.55,59.85,-12.56288521,-7.5734687,2060.565304,5.465080131,141.9564859,69.41384958,-35.92932511
0.55,59.9,-12.37481769,-7.616044575,2062.816313,5.46830063,141.9335179,65.7893636,-37.34328755
0.55,59.95,-12.21115363,-7.657822623,2065.066767,5.471523411,141.9106712,62.12775532,-38.81202863
0.55,60,-12.07046383,-7.704343871,2067.316667,5.474748462,141.8879453,58.45558794,-40.34824341
0.55,60.05,-11.95056796,-7.762308635,2069.566016,5.477975775,141.8653398,54.7937281,-41.94328378
0.55,60.1,-11.84887314,-7.837404222,2071.814816,5.481205341,141.8428539,51.15657001,-43.56442874
0.55,60.15,-11.76270857,-7.932320455,2074.063067,5.48443715,141.8204874,47.55202419,-45.16271396
0.55,60.2,-11.68962358,-8.046075577,2076.310772,5.487671193,141.7982396,43.98213626,-46.68681738
0.55,60.25,-11.62763172,-8.174746746,2078.557933,5.490907462,141.7761101,40.44417185,-48.0948616
0.55,60.3,-11.57539582,-8.312812672,2080.804552,5.494145948,141.7540983,36.93202977,-49.35955958
0.55,60.35,-11.53235483,-8.454303184,2083.05063,5.49738664,141.7322038,33.43790114,-50.46762379
0.55,60.4,-11.49879093,-8.593443204,2085.296169,5.500629531,141.710426,29.95415064,-51.41671966
0.55,60.45,-11.4758273,-8.724876584,2087.541171,5.503874612,141.6887645,26.47543055,-52.21253575
0.55,60.5,-11.46533261,-8.843680197,2089.785638,5.507121874,141.6672187,23.00102239,-52.86701289
0.55,60.55,-11.46969342,-8.945341754,2092.029571,5.510371308,141.6457882,19.53730594,-53.39773304
0.55,60.6,-11.49140679,-9.025800893,2094.272973,5.513622906,141.6244725,16.10005621,-53.82803959
0.55,60.65,-11.53245692,-9.081593822,2096.515844,5.516876658,141.6032712,12.71596906,-54.1873722
0.55,60.7,-11.5934877,-9.110101646,2098.758187,5.520132556,141.5821836,9.422490965,-54.51133484
0.55,60.75,-11.67288006,-9.109873151,2101.000004,5.523390593,141.5612094,6.26487829,-54.84109393
0.55,60.8,-11.76597376,-9.080968672,2103.241295,5.526650758,141.5403481,3.289740215,-55.22182098
0.55,60.85,-11.86477684,-9.025253706,2105.482064,5.529913044,141.5195992,0.535374712,-55.7000672
0.55,60.9,-11.9584837,-8.946564134,2107.722311,5.533177443,141.4989622,-1.979148973,-56.32018271
0.55,60.95,-12.03489954,-8.85067433,2109.962039,5.536443946,141.4784367,-4.262740278,-57.12013607
0.55,61,-12.08249163,-8.745026295,2112.201248,5.539712545,141.4580222,-6.355297942,-58.12729545
0.55,61.05,-12.09245377,-8.638218339,2114.439942,5.542983231,141.4377182,-8.323214715,-59.35484264
0.55,61.1,-12.06011451,-8.539297866,2116.67812,5.546255996,141.4175244,-10.24866328,-60.79947257
