"W_50 [mm]","Freq [GHz]","dB(S(1,1)) []","dB(S(2,1)) []","im(Gamma(1:1)) []","re(Gamma(1:1)) []","re(Zo(1:1)) []","ang_deg(S(1,1)) [deg]","ang_deg(S(2,1)) [deg]"
0.5,57,-20.2252962916759,-4.59184686919379,1880.5067067323,5.50800486786509,266.397646818513,40.9361207428341,-127.197084854906
0.5,57.05,-20.0708141107783,-4.67316470247576,1882.89281754577,5.51074526034616,266.322309468929,38.7980625834946,-128.739826568661
0.5,57.1,-19.9105799483927,-4.76917647576692,1885.27801580156,5.5134900365034,266.247361589634,36.607569919539,-130.308532376472
0.5,57.15,-19.7428937838301,-4.87964675682943,1887.66230499574,5.51623917384814,266.17280111799,34.3762727494679,-131.882434309479
0.5,57.2,-19.5660769752796,-5.00390869112575,1890.0456886054,5.5189926500523,266.098626006067,32.1325645790789,-133.43814540747
0.5,57.25,-19.3811299915328,-5.14074558340373,1892.42817008881,5.52175044294692,266.024834220509,29.9358211599588,-134.950886834517
0.5,57.3,-19.2001568636176,-5.28830064557564,1894.80975288553,5.52451253052072,265.951423742402,27.8720524553909,-136.396017741732
0.5,57.35,-19.0554987508496,-5.4440413655231,1897.19044041653,5.52727889091867,265.878392567143,25.9351401405568,-137.750759349146
0.5,57.4,-18.9693486289632,-5.60479914044259,1899.57023608439,5.53004950244059,265.805738704316,23.8421507129664,-138.995945535349
0.5,57.45,-18.9067009081073,-5.7668929578744,1901.94914327334,5.53282434353973,265.733460177558,21.3261978379271,-140.117589547201
0.5,57.5,-18.8267918040138,-5.92633015479846,1904.32716534947,5.53560339282141,265.66155502444,18.4770317855927,-141.108049250919
0.5,57.55,-18.7239955348139,-6.07906134302236,1906.7043056608,5.53838662904166,265.590021296336,15.467163304819,-141.966612962259
0.5,57.6,-18.6067121968108,-6.22125469476787,1909.08056753745,5.54117403110584,265.518857058303,12.3762707710161,-142.699411711958
0.5,57.65,-18.4825203172974,-6.34955031206962,1911.45595429175,5.54396557806734,265.44806038896,9.22320748106126,-143.318674189932
0.5,57.7,-18.3561820905869,-6.46125964811037,1913.83046921836,5.54676124912624,265.377629380365,6.00615307648551,-143.841449962858
0.5,57.75,-18.2305954048682,-6.55448659927743,1916.20411559438,5.54956102362799,265.307562137898,2.71870502817374,-144.288006707757
0.5,57.8,-18.1076594593279,-6.62816249536951,1918.57689667953,5.55236488106214,265.237856780141,-0.645327491144479,-144.680139326511
0.5,57.85,-17.9887679686015,-6.68200246449763,1920.9488157162,5.55517280106106,265.168511438762,-4.09079698610468,-145.039609565534
0.5,57.9,-17.8750639061489,-6.71640188109084,1923.31987592964,5.55798476339865,265.0995242584,-7.62110450214273,-145.386876079912
0.5,57.95,-17.76756773024,-6.73229693442837,1925.69008052801,5.56080074798912,265.030893396549,-11.2383054049713,-145.740197833586
0.5,58,-17.6672402763712,-6.7310129327807,1928.05943270257,5.56362073488571,264.962617023449,-14.9432202016525,-146.11511995377
0.5,58.05,-17.5750110150571,-6.71411942973716,1930.42793562773,5.56644470427953,264.894693321969,-18.7355064216767,-146.524295876787
0.5,58.1,-17.4917869649464,-6.68330483064964,1932.79559246123,5.56927263649826,264.827120487499,-22.6136937544024,-146.977568815847
0.5,58.15,-17.4184500695236,-6.64027674301821,1935.16240634422,5.57210451200503,264.75989672784,-26.5751947655164,-147.482227258465
0.5,58.2,-17.3558472355978,-6.58668919427295,1937.52838040136,5.57494031139719,264.693020263097,-30.6163037327535,-148.043356854609
0.5,58.25,-17.3047754934768,-6.52409441511525,1939.89351774097,5.57778001540516,264.626489325568,-34.7321940216469,-148.664227183037
0.5,58.3,-17.265963907929,-6.45391508352704,1942.25782145514,5.58062360489122,264.560302159643,-38.9169219789407,-149.346670304244
0.5,58.35,-17.2400534699799,-6.37743236602431,1944.62129461982,5.58347106084844,264.494457021696,-43.1634429690599,-150.09142476342
0.5,58.4,-17.2275759856704,-6.29578533430289,1946.98394029493,5.58632236439946,264.42895217998,-47.4636429478944,-150.898431923668
0.5,58.45,-17.2289328138862,-6.2099779935478,1949.34576152449,5.58917749679543,264.363785914526,-51.8083868716524,-151.767080807833
0.5,58.5,-17.2443741153824,-6.12089095885298,1951.70676133673,5.59203643941484,264.298956517044,-56.1875833744366,-152.696403464119
0.5,58.55,-17.2739790210863,-6.02929559137428,1954.06694274418,5.59489917376247,264.234462290815,-60.5902637082811,-153.685226036325
0.5,58.6,-17.317636801172,-5.93586907254851,1956.42630874377,5.59776568146827,264.1703015506,-65.0046721846044,-154.732282026079
0.5,58.65,-17.3750287354706,-5.84120942492623,1958.78486231699,5.60063594428628,264.106472622533,-69.4183655750403,-155.836294365568
0.5,58.7,-17.4456099942235,-5.74584988554917,1961.14260642993,5.60350994409357,264.04297384403,-73.8183203913933,-156.996032385002
0.5,58.75,-17.528590504069,-5.65027232095082,1963.49954403341,5.60638766288919,263.97980356369,-78.1910498685356,-158.210348906283
0.5,58.8,-17.6229135891655,-5.55491956494472,1965.85567806309,5.60926908279311,263.916960141199,-82.5227368990336,-159.478201739468
0.5,58.85,-17.727231256396,-5.46020668355167,1968.21101143958,5.61215418604518,263.854441947236,-86.7993950083643,-160.798662923649
0.5,58.9,-17.8398754741002,-5.36653124435545,1970.56554706853,5.61504295500413,263.792247363379,-91.0070763306968,-162.170918198059
0.5,58.95,-17.9588258306116,-5.27428270468532,1972.9192878407,5.61793537214655,263.730374782013,-95.1321526358297,-163.594258432761
0.5,59,-18.0816757062519,-5.18385104464081,1975.27223663213,5.62083142006586,263.668822606238,-99.1617013094952,-165.06806408921
0.5,59.05,-18.2056016578027,-5.0956347638808,1977.62439630419,5.62373108147135,263.607589249778,-103.084030429038,-166.591783206428
0.5,59.1,-18.3273440657594,-5.01004833908083,1979.97576970368,5.62663433918718,263.546673136891,-106.889372213396,-168.164902901974
0.5,59.15,-18.4432109072421,-4.92752920330958,1982.32635966293,5.6295411761514,263.486072702281,-110.570757670882,-169.786913923188
0.5,59.2,-18.5491199751446,-4.84854425846663,1984.67616899993,5.63245157541503,263.425786391009,-114.125052619913,-171.457267373267
0.5,59.25,-18.6406964939254,-4.77359586471197,1987.02520051838,5.63536552014104,263.365812658407,-117.554083889049,-173.175322367307
0.5,59.3,-18.7134408029881,-4.70322716230483,1989.37345700781,5.63828299360348,263.30614996999,-120.865717660586,-174.940283057096
0.5,59.35,-18.7629724265234,-4.6380264660684,1991.72094124366,5.64120397918649,263.246796801373,-124.074682978209,-176.751123230426
0.5,59.4,-18.7853413723979,-4.57863032487605,1994.06765598741,5.64412846038347,263.187751638184,-127.202888085971,-178.606496596764
0.5,59.45,-18.7773766047343,-4.52572465282679,1996.41360398662,5.64705642079617,263.129012975983,-130.278989051945,179.49536899316
0.5,59.5,-18.7370209152513,-4.48004311260609,1998.75878797505,5.64998784413439,263.070579320176,-133.337066001311,177.556794646002
0.5,59.55,-18.6635895435752,-4.44236166860405,2001.10321067279,5.6529227142221,263.012449185936,-136.414441355953,175.58079104231
0.5,59.6,-18.5578949456804,-4.41348794296657,2003.44687478591,5.65586101509554,262.95462109812,-139.54889314809,173.571214922736
0.5,59.65,-18.4222044165029,-4.39424373631,2005.78978300809,5.65880273037531,262.89709359119,-142.775696692038,171.532936867367
0.5,59.7,-18.2600343285774,-4.38543887943904,2008.13193801822,5.66174784461045,262.839865209133,-146.124992966365,169.472011494987
0.5,59.75,-18.0758213422125,-4.38783456485431,2010.47334248251,5.66469634189762,262.782934505381,-149.619900528706,167.395835341631
0.5,59.8,-17.8745339234525,-4.40209461425841,2012.81399905383,5.66764820656858,262.726300042734,-153.275593353398,165.313270275292
0.5,59.85,-17.6612905529295,-4.42872395929369,2015.15391037184,5.6706034230588,262.669960393284,-157.099338375283,163.234701870791
0.5,59.9,-17.4410367694127,-4.46799515190622,2017.49307906311,5.67356197590448,262.613914138337,-161.091303218857,161.171993973208
0.5,59.95,-17.2183101348505,-4.51986613764808,2019.83150774122,5.67652384974155,262.558159868338,-165.245850559835,159.138295033242
0.5,60,-16.9970993676647,-4.58389582842601,2022.16919900679,5.67948902930472,262.502696182797,-169.553030817474,157.147652173414
0.5,60.05,-16.7807871170797,-4.65916791196928,2024.50615544764,5.68245749942671,262.447521690238,-174.000040623793,155.214399641541
0.5,60.1,-16.5721569250064,-4.74423709990804,2026.84237963882,5.68542924503743,262.392635007977,-178.572495002411,153.352313391123
0.5,60.15,-16.3734427136287,-4.8371144026135,2029.1778741427,5.68840425116318,262.338034762388,176.744561228656,151.573564827618
0.5,60.2,-16.1864013051228,-4.9353074240238,2031.51264150907,5.69138250292585,262.283719588455,171.965917298848,149.887561210429
0.5,60.25,-16.01239273594,-5.03592660459118,2033.8466842752,5.69436398554215,262.22968812991,167.105711354317,148.299817536687
0.5,60.3,-15.8524578178818,-5.13585822398581,2036.18000496596,5.69734868432286,262.175939039111,162.177152140759,146.811047364936
0.5,60.35,-15.7073865817946,-5.23199098971483,2038.51260609383,5.70033658467202,262.12247097698,157.192396885021,145.416667042623
0.5,60.4,-15.5777745306591,-5.32146851590836,2040.84449015906,5.70332767208623,262.069282612927,152.162536853236,144.106863465486
0.5,60.45,-15.4640659826923,-5.4019297596927,2043.17565964968,5.70632193215383,262.016372624784,147.097648621383,142.867279594256
0.5,60.5,-15.366585325584,-5.47169799389127,2045.50611704163,5.70931935055424,261.963739698737,142.006877383597,141.680245703073
0.5,60.55,-15.2855579089023,-5.5298879450358,2047.83586479881,5.71231991305716,261.91138252926,136.898527012639,140.526365970904
0.5,60.6,-15.2211227455908,-5.5764180521187,2050.16490537315,5.71532360552188,261.859299819046,131.780139232806,139.386199392029
0.5,60.65,-15.1733393165078,-5.61193476995725,2052.49324120472,5.71833041389655,261.807490278944,126.65855081547,138.241773707599
0.5,60.7,-15.1421906793801,-5.63767201479373,2054.82087472176,5.72134032421745,261.755952627891,121.539923075708,137.077735986106
0.5,60.75,-15.1275848502909,-5.65527690536362,2057.14780834081,5.72435332260831,261.704685592849,116.429742168069,135.882045010035
0.5,60.8,-15.1293561053954,-5.66663219571301,2059.47404446673,5.72736939527959,261.653687908739,111.33279182254,134.646212391213
0.5,60.85,-15.1472674833194,-5.67369864636595,2061.7995854928,5.73038852852781,261.602958318381,106.253102305741,133.365173577976
0.5,60.9,-15.1810153878004,-5.67839077741591,2064.1244338008,5.73341070873485,261.552495572428,101.193880615761,132.03690568584
0.5,60.95,-15.2302368245565,-5.68249026359578,2066.44859176107,5.73643592236724,261.502298429306,96.1574273109948,130.661910622098
0.5,61,-15.2945194814307,-5.68759453807218,2068.77206173259,5.73946415597558,261.45236565515,91.1450450431237,129.242661567855
0.5,61.05,-15.3734145971771,-5.69509441975976,2071.09484606304,5.74249539619375,261.402696023744,86.1569429464073,127.783081619737
0.5,61.1,-15.4664523760866,-5.70617329450725,2073.41694708889,5.74552962973834,261.353288316464,81.1921396838062,126.288094907656
0.5,61.15,-15.5731595997843,-5.72182073006722,2075.73836713545,5.74856684340798,261.304141322211,76.2483663260971,124.763267891388
0.5,61.2,-15.6930790629878,-5.74285458822669,2078.05910851694,5.75160702408267,261.255253837358,71.3219684940773,123.214543241481
0.5,61.25,-15.8257905090802,-5.7699471261039,2080.3791735366,5.75465015872314,261.206624665689,66.4078054493506,121.648060009378
0.5,61.3,-15.9709328512901,-5.80365189905853,2082.69856448669,5.75769623437024,261.15825261834,61.4991421594403,120.070050087319
0.5,61.35,-16.1282276204901,-5.84442932123637,2085.01728364861,5.7607452381443,261.110136513742,56.5875288243757,118.486800577087
0.5,61.4,-16.2975037644833,-5.89266945348355,2087.33533329297,5.76379715724449,261.062275177565,51.6626609245455,116.904673255422
0.5,61.45,-16.4787241192449,-5.9487109756165,2089.65271567961,5.76685197894822,261.014667442661,46.7122114829154,115.330174858494
0.5,61.5,-16.6720140620914,-6.01285537891404,2091.96943305772,5.76990969061052,260.967312149004,41.7216258461185,113.770074747896
0.5,61.55,-16.877693018323,-6.08537519207557,2094.28548766588,5.77297027966346,260.920208143642,36.6738677752019,112.231569198438
0.5,61.6,-17.0963095944736,-6.16651451083543,2096.60088173211,5.77603373361551,260.873354280636,31.5491038831943,110.722493623423
0.5,61.65,-17.3286810993307,-6.25647918696427,2098.91561747398,5.77910004005097,260.826749421009,26.3243113488988,109.251584911014
0.5,61.7,-17.5759379941165,-6.35541266687092,2101.22969709863,5.78216918662938,260.780392432688,20.9727912739548,107.828794623274
0.5,61.75,-17.8395732184666,-6.46335156700545,2103.54312280286,5.78524116108493,260.734282190456,15.4635669722722,106.4656482045
0.5,61.8,-18.1214950752102,-6.58015260265854,2105.85589677319,5.78831595122588,260.688417575894,9.76064292278063,105.1756322537
0.5,61.85,-18.4240799153892,-6.70537962597553,2108.16802118591,5.79139354493401,260.642797477332,3.82209634252201,103.974565922881
0.5,61.9,-18.7502163791391,-6.83813698588046,2110.47949820716,5.79447393016403,260.597420789797,-2.40102983378698,102.88086548638
0.5,61.95,-19.1033249765296,-6.97683505203062,2112.79032999298,5.79755709494302,260.552286414956,-8.96606419166645,101.915532699372
0.5,62,-19.4873230147109,-7.11887955748441,2115.10051868938,5.80064302736987,260.507393261074,-15.940298178847,101.101578977594
0.5,62.05,-19.9064817603483,-7.26029578788839,2117.41006643238,5.80373171561477,260.462740242956,-23.4028264784128,100.462444011026
0.5,62.1,-20.3650854534158,-7.39534253654784,2119.71897534812,5.80682314791859,260.418326281901,-31.4465502336968,100.018827216747
0.5,62.15,-20.866745469802,-7.51624937741844,2122.02724755286,5.80991731259242,260.374150305651,-40.1800531677018,99.7833625383665
0.5,62.2,-21.4131480622166,-7.61331826967046,2124.33488515309,5.81301419801696,260.33021124834,-49.7285829252489,99.7530035261533
0.5,62.25,-22.001943858012,-7.67571409905278,2126.64189024554,5.81611379264206,260.28650805045,-60.2323289627802,99.9001822878648
0.5,62.3,-22.6235118218352,-7.69320238387108,2128.94826491729,5.81921608498612,260.243039658758,-71.8381569280619,100.165794335076
0.5,62.35,-23.2566916911191,-7.65872441071819,2131.2540112458,5.82232106363562,260.199805026291,-84.6777564198509,100.458883067688
0.5,62.4,-23.8647299758035,-7.57105229918776,2133.55913129898,5.82542871724461,260.156803112277,-98.8224624843413,100.667360416802
0.5,62.45,-24.3949326289927,-7.4362570985754,2135.86362713521,5.82853903453414,260.114032882099,-114.209842791124,100.679441342143
0.5,62.5,-24.7874599759548,-7.26697709468639,2138.16750080346,5.83165200429182,260.07149330725,-130.562217496854,100.408548783903
0.5,62.55,-24.9954569389647,-7.07958814083339,2140.4707543433,5.83476761537128,260.029183365283,-147.360241020831,99.8109599633262
0.5,62.6,-25.0070889669781,-6.89053635743497,2142.77338978498,5.83788585669168,259.987102039768,-163.939707041295,98.8892557311214
0.5,62.65,-24.8517237161322,-6.71335345513267,2145.07540914946,5.8410067172372,259.945248320247,-179.685564542139,97.6826560896122
0.5,62.7,-24.5844487137502,-6.55719093175515,2147.37681444851,5.84413018605659,259.903621202188,165.80813743255,96.2510144570312
0.5,62.75,-24.2629699222872,-6.42680675766534,2149.67760768471,5.84725625226266,259.862219686941,152.704923421472,94.6595481871975
0.5,62.8,-23.9325230415088,-6.32343234098549,2151.97779085155,5.8503849050318,259.821042781694,140.989168926907,92.9682378265833
0.5,62.85,-23.6220111337476,-6.24591878863365,2154.27736593344,5.8535161336035,259.780089499429,130.549637200432,91.2264928664367
0.5,62.9,-23.3466325145289,-6.19177490846605,2156.57633490583,5.85664992727989,259.739358858878,121.240412088262,89.4718247106969
0.5,62.95,-23.112234387614,-6.15793925601839,2158.87469973519,5.85978627542527,259.698849884485,112.914057800978,87.7308476598015
0.5,63,-22.9190901095927,-6.14127733101714,2161.17246237912,5.86292516746566,259.658561606354,105.435945257173,86.021263729407
0.55,57,-20.6189473060519,-4.17549698512191,1950.94356334462,5.30720134422545,234.947205305364,27.3002386501734,53.9629405663926
0.55,57.05,-20.4400085652801,-4.24303096873259,1953.24318624896,5.31031841975573,234.90260321487,25.7227847843384,52.1332370464377
0.55,57.1,-20.2581344713793,-4.32206309362763,1955.54213718101,5.31343834590038,234.858248749207,24.0852165363666,50.3510976818965
0.55,57.15,-20.0733983947109,-4.41171062593224,1957.84041854456,5.31656110965393,234.814140714905,22.3844459755044,48.6280633054586
0.55,57.2,-19.8859036620398,-4.51075610960536,1960.13803273142,5.31968669809432,234.770277926373,20.6172417972545,46.9749240290362
0.55,57.25,-19.6957884339289,-4.6176657430681,1962.43498212149,5.3228150983822,234.72665920582,18.7802353035943,45.4012189819035
0.55,57.3,-19.5032311171534,-4.73062764092702,1964.73126908285,5.3259462977603,234.683283383194,16.8699307695141,43.9147626063198
0.55,57.35,-19.3084563041131,-4.84760870491769,1967.02689597184,5.32908028355269,234.640149296105,14.8827213231541,42.5212363803678
0.55,57.4,-19.1117412014893,-4.9664269085736,1969.32186513311,5.33221704316417,234.597255789759,12.8149116516428,41.2238812413733
0.55,57.45,-18.9134224691428,-5.08483415380287,1971.61617889974,5.33535656407958,234.554601716893,10.6627490269304,40.0233179998073
0.55,57.5,-18.7139033350085,-5.20060371931139,1973.90983959325,5.33849883386318,234.5121859377,8.4224643070478,38.9175116198317
0.55,57.55,-18.5136607801814,-5.31161584873439,1976.20284952376,5.34164384015798,234.47000731977,6.09032468087043,37.9018818772
0.55,57.6,-18.3132524988192,-5.41593527967873,1978.49521098999,5.34479157068509,234.428064738018,3.66269995010379,36.9695493350759
0.55,57.65,-18.1133232295724,-5.51187544874598,1980.78692627935,5.34794201324313,234.386357074619,1.13614402971119,36.1116935479615
0.55,57.7,-17.9146099310232,-5.59804558225806,1983.07799766806,5.35109515570756,234.344883218946,-1.49250696663183,35.3179914007451
0.55,57.75,-17.7179451388087,-5.67337868532073,1985.36842742116,5.35425098603009,234.303642067502,-4.22601928047146,34.5770985279514
0.55,57.8,-17.5242577076441,-5.73714032131098,1987.65821779261,5.35740949223806,234.262632523856,-7.06662887162731,33.8771362263009
0.55,57.85,-17.3345700249522,-5.78891978067064,1989.94737102535,5.36057066243381,234.221853498581,-10.0158931282818,33.2061498818699
0.55,57.9,-17.1499907094449,-5.82860656806361,1992.23588935141,5.36373448479412,234.18130390919,-13.0745302919569,32.5525117867704
0.55,57.95,-16.9717018102985,-5.85635596527534,1994.52377499192,5.36690094756957,234.140982680074,-16.2422522377604,31.9052500171302
0.55,58,-16.8009396378195,-5.87254772246194,1996.81103015721,5.37007003908397,234.100888742439,-19.5175988547962,31.2542943511062
0.55,58.05,-16.6389686212575,-5.87774174862437,1999.09765704688,5.37324174773379,234.061021034246,-22.8977849739853,30.5906387394403
0.55,58.1,-16.4870480302774,-5.872634132105,2001.38365784988,5.37641606198753,234.02137850015,-26.3785732147588,29.9064266786805
0.55,58.15,-16.3463920180148,-5.85801607050469,2003.66903474454,5.37959297038523,233.981960091437,-29.9541877615057,29.1949705110056
0.55,58.2,-16.2181242149884,-5.83473746936659,2005.95378989867,5.38277246153782,233.94276476597,-33.6172843557295,28.4507181497061
0.55,58.25,-16.1032289492689,-5.80367619492888,2008.23792546961,5.3859545241266,233.903791488125,-37.3589901609694,27.6691812967244
0.55,58.3,-16.0025019690642,-5.76571331355628,2010.52144360432,5.38913914690266,233.865039228732,-41.1690232840444,26.8468383524196
0.55,58.35,-15.9165041478537,-5.72171415501449,2012.8043464394,5.39232631868638,233.826506965021,-45.0358956466312,25.9810234411677
0.55,58.4,-15.8455219059994,-5.67251470234962,2015.0866361012,5.3955160283668,233.788193680563,-48.9471951164274,25.069810763178
