"W_50 [mm]","Freq [GHz]","dB(S(1,1)) []","dB(S(2,1)) []","im(Gamma(1:1)) []","re(Gamma(1:1)) []","re(Zo(1:1)) []","ang_deg(S(1,1)) [deg]","ang_deg(S(2,1)) [deg]"
0.5,57,-8.09711571450506,-3.45710841163111,1901.79505238105,4.69054242971649,18.0307420920472,-18.5816349546795,58.7932662581007
0.5,57.05,-8.12270188496873,-3.41772713061249,1903.75977360574,4.69413669333562,18.029899912118,-20.0326316818283,57.4523060664495
0.5,57.1,-8.15580602779548,-3.37897759836002,1905.72427657442,4.69773258990599,18.0290659480116,-21.4956855721005,56.0974886242752
0.5,57.15,-8.19683593898682,-3.34092278107575,1907.68856217678,4.70133011704511,18.0282410926152,-22.9680377898573,54.7283310226457
0.5,57.2,-8.24620388675318,-3.3036371640874,1909.65263129889,4.70492927238395,18.0274256889051,-24.4465341050003,53.3443056168669
0.5,57.25,-8.3043236168304,-3.26720915167356,1911.61648482319,4.70853005356676,18.0266198685436,-25.9275807695399,51.9448371661208
0.5,57.3,-8.37160646963378,-3.23174400638794,1913.58012362853,4.71213245825108,18.0258236807059,-27.4070936222606,50.5293006663486
0.5,57.35,-8.44845628190879,-3.19736745410199,1915.54354859022,4.71573648410751,18.0250371381395,-28.8804389055243,49.0970204197051
0.5,57.4,-8.53526260675147,-3.16423010835221,1917.50676057999,4.71934212881973,18.0242602356283,-30.3423640416297,47.6472711530547
0.5,57.45,-8.63239159148004,-3.13251289815159,1919.46976046606,4.72294939008432,18.0234929581499,-31.7869164502379,46.1792823888005
0.5,57.5,-8.74017358286095,-3.10243371504806,1921.43254911311,4.72655826561069,18.022735284583,-33.2073484947723,44.6922478363178
0.5,57.55,-8.85888615805309,-3.07425552298957,1923.39512738236,4.73016875312099,18.0219871889094,-34.5960070024186,43.1853423844906
0.5,57.6,-8.98873077637367,-3.0482961886277,1925.35749613154,4.73378085035002,18.0212486385813,-35.9442068133319,41.6577504347216
0.5,57.65,-9.12980057800629,-3.02494027149208,1927.3196562149,4.73739455504508,18.0205195841873,-37.2420899876365,40.108710949509
0.5,57.7,-9.28203599340093,-3.00465292954741,1929.28160848328,4.74100986496596,18.0197998888156,-38.4784764637352,38.5375868638095
0.5,57.75,-9.44516377054585,-2.98799588784539,1931.2433537841,4.74462677788476,18.0190893222738,-39.6407194395895,36.9439695866942
0.5,57.8,-9.61861384790823,-2.9756449885992,1933.20489296135,4.74824529158587,18.0183903943105,-40.714591569958,35.3278333385123
0.5,57.85,-9.8014074328965,-2.96840803219888,1935.16622685567,4.75186540386583,18.0176990342761,-41.6842491902828,33.6897589776776
0.5,57.9,-9.99200925459642,-2.96724018853066,1937.12735630429,4.75548711253325,18.0170172512512,-42.5323551065569,32.0312522621993
0.5,57.95,-10.1881384268009,-2.9732518644851,1939.08828214114,4.75911041540874,18.0163448859061,-43.2404903097781,30.3551856280224
0.5,58,-10.3865378984858,-2.9877001399713,1941.04900519677,4.76273531032479,18.0156818841533,-43.7900536836616,28.6663919786169
0.5,58.05,-10.582715780729,-3.01194938460318,1943.00952629845,4.76636179512571,18.0150282097332,-44.1639311095755,26.9724264882784
0.5,58.1,-10.7706981205875,-3.04737958475696,1944.96984627013,4.76998986766754,18.0143838315241,-44.3492863973691,25.2844753175869
0.5,58.15,-10.9428770231407,-3.0952138182613,1946.92996593249,4.77361952581805,18.013748720386,-44.3418219345614,23.6183092954938
0.5,58.2,-11.0900998214756,-3.15623386580866,1948.88988610296,4.77725076745671,18.0131228481178,-44.1516529876591,21.9950346640319
0.5,58.25,-11.2022062925386,-3.23036488166986,1950.84960759569,4.78088359047487,18.0125061870471,-43.8103619788344,20.4411758442073
0.5,58.3,-11.2692313579943,-3.31615135168839,1952.80913122162,4.78451799277455,18.0118987098461,-43.3777271056847,18.9873874420053
0.5,58.35,-11.2833674727761,-3.41023036378025,1954.76845778848,4.78815397226251,18.0113003894426,-42.9452448315762,17.6650030994231
0.5,58.4,-11.2414589712555,-3.50702440273446,1956.72758810081,4.79179152686429,18.0107111989727,-42.6326970783426,16.4999988292629
0.5,58.45,-11.1473452220414,-3.59895975369036,1958.68652295995,4.79543065452123,18.0101311117549,-42.5749645574783,15.5050781027737
0.5,58.5,-11.0130551149021,-3.67744571091932,1960.64526316409,4.7990713531792,18.0095601012752,-42.8998206535718,14.6723131136807
0.5,58.55,-10.8580291494375,-3.7345338282078,1962.60380950827,4.80271362079485,18.0089981411777,-43.7023099483364,13.9700135131957
0.5,58.6,-10.7062781120704,-3.76472590327698,1964.56216278439,4.80635745533614,18.0084452052589,-45.0243640509407,13.3466390173941
0.5,58.65,-10.5822921014023,-3.76616208067198,1966.52032378126,4.81000285478202,18.0079012674639,-46.8470045660849,12.741239436548
0.5,58.7,-10.507032797593,-3.74068098545795,1968.47829328456,4.81364981712218,18.0073663018839,-49.0973745372944,12.0962267041635
0.5,58.75,-10.49520447816,-3.69285069512828,1970.43607207691,4.81729834035694,18.0068402827539,-51.667013599943,11.3672765514949
0.5,58.8,-10.5543636010633,-3.62853989540268,1972.39366093785,4.82094842249717,18.0063231844515,-54.4343138423178,10.5274591993832
0.5,58.85,-10.6856862918054,-3.55363161417722,1974.35106064387,4.82460006156418,18.0058149814954,-57.2841759067465,9.5660308081623
0.5,58.9,-10.8857284560383,-3.47319862574337,1976.30827196844,4.82825325558967,18.0053156485447,-60.1206789338667,8.48424002034496
0.5,58.95,-11.1484285445301,-3.39115391362432,1978.26529568199,4.8319080026156,18.0048251603975,-62.8720875692772,7.29051819963155
0.5,59,-11.4668194525626,-3.31022806972999,1980.22213255194,4.83556430069417,18.0043434919905,-65.4899845893962,5.99646867317336
0.5,59.05,-11.8342230890887,-3.23210241356519,1982.17878334275,4.83922214788768,18.0038706183978,-67.9451346310522,4.61413065961729
0.5,59.1,-12.2449369779523,-3.15757003336333,1984.13524881588,4.8428815422685,18.0034065148301,-70.2222874860532,3.15447765716853
0.5,59.15,-12.6945366145847,-3.08665349514518,1986.09152972983,4.84654248191899,18.0029511566342,-72.3152767155181,1.62700807280325
0.5,59.2,-13.1799374171266,-3.01866636775298,1988.04762684017,4.8502049649314,18.0025045192916,-74.2229958980127,0.0404509077370526
0.5,59.25,-13.6993334926397,-2.95229098239497,1990.00354089954,4.8538689894078,18.0020665784184,-75.9463349940657,-1.59518369176956
0.5,59.3,-14.2520923407329,-2.88588524738087,1991.95927265764,4.85753455346002,18.0016373097641,-77.4859123201295,-3.26528080426888
0.5,59.35,-14.8386520677652,-2.81832380310427,1993.91482286131,4.86120165520958,18.0012166892108,-78.8403517908674,-4.94794495991188
0.5,59.4,-15.4604452237433,-2.75028762920804,1995.87019225446,4.86487029278758,18.0008046927724,-80.0048457253176,-6.61695437732175
0.5,59.45,-16.1198597035447,-2.68482395722403,1997.82538157817,4.86854046433466,18.0004012965942,-80.9697542652607,-8.25344177073111
0.5,59.5,-16.8202391588806,-2.62587298837894,1999.78039157062,4.87221216800094,18.0000064769514,-81.7189903433371,-9.85735583995961
0.5,59.55,-17.5659196138618,-2.57587814964978,2001.7352229672,4.8758854019459,17.9996202102489,-82.2279030165288,-11.4448272452621
0.5,59.6,-18.3622915176969,-2.53494906955075,2003.68987650043,4.87956016433836,17.9992424730203,-82.4602817536529,-13.0348156661581
0.5,59.65,-19.2158612260895,-2.50176842467949,2005.64435290002,4.88323645335635,17.998873241927,-82.3639319268567,-14.6396726650648
0.5,59.7,-20.1342508211685,-2.47473295611195,2007.5986528929,4.8869142671871,17.9985124937575,-81.8639745497948,-16.2641337103401
0.5,59.75,-21.1259933975312,-2.45252771920297,2009.55277720321,4.89059360402697,17.9981602054266,-80.8525458596861,-17.9081302576936
0.5,59.8,-22.1997904582503,-2.43423706382884,2011.5067265523,4.89427446208129,17.9978163539746,-79.1728927297839,-19.5694831656506
0.5,59.85,-23.3624573001718,-2.41927120011351,2013.46050165878,4.89795683956441,17.9974809165667,-76.5952211936065,-21.2454565096064
0.5,59.9,-24.6137936035594,-2.4072639491371,2015.4141032385,4.90164073469957,17.9971538704919,-72.7825017974354,-22.9334380717525
0.5,59.95,-25.9346316031368,-2.39799174824846,2017.36753200459,4.90532614571882,17.9968351931622,-67.2526949420083,-24.6311580909847
0.5,60,-27.2617386162496,-2.39131942443312,2019.32078866747,4.909013070863,17.9965248621123,-59.3786979524479,-26.3367087494847
0.5,60.05,-28.4472511710115,-2.38716630768437,2021.27387393483,4.91270150838163,17.9962228549983,-48.5654098075633,-28.0484937032517
0.5,60.1,-29.2378612534963,-2.3854856227707,2023.22678851169,4.91639145653286,17.9959291495972,-34.843869978854,-29.7651625782868
0.5,60.15,-29.3807747176492,-2.3862520220722,2025.1795331004,4.92008291358342,17.9956437238062,-19.6659735970982,-31.4855505587963
0.5,60.2,-28.8503353382784,-2.38945397876814,2027.13210840062,4.92377587780852,17.9953665556415,-5.50483000119922,-33.2086285852174
0.5,60.25,-27.8762796087765,-2.39508905497962,2029.08451510937,4.92747034749183,17.9950976232382,5.93070163678951,-34.9334641773968
0.5,60.3,-26.7245395493393,-2.40316086919843,2031.03675392104,4.93116632092536,17.9948369048491,14.4152227163701,-36.6591911904974
0.5,60.35,-25.5612636176548,-2.41367707054379,2032.98882552739,4.93486379640946,17.9945843788441,20.4951114686345,-38.3849865605557
0.5,60.4,-24.4609066396415,-2.4266479100944,2034.94073061756,4.93856277225269,17.9943400237092,24.8151517620597,-40.1100523331289
0.5,60.45,-23.4478211769313,-2.44208516374009,2036.89246987811,4.94226324677181,17.9941038180465,27.8872079940047,-41.8336016141615
0.5,60.5,-22.524195581137,-2.46000125618093,2038.84404399299,4.9459652182917,17.9938757405723,30.0739335798173,-43.5548474046559
0.5,60.55,-21.6837254158301,-2.48040849080166,2040.79545364358,4.94966868514529,17.9936557701177,31.6247524114944,-45.2729935445733
0.5,60.6,-20.9175473811556,-2.50331832186498,2042.74669950872,4.95337364567351,17.9934438856268,32.7115916577543,-46.9872271964891
0.5,60.65,-20.216631738384,-2.52874062342398,2044.69778226468,4.9570800982252,17.9932400661566,33.4547055006239,-48.6967124568033
0.5,60.7,-19.5726503469382,-2.55668291912664,2046.64870258519,4.96078804115712,17.9930442908761,33.9397949782243,-50.400584804086
0.5,60.75,-18.978211306307,-2.58714954195429,2048.59946114148,4.96449747283379,17.9928565390654,34.2291002273678,-52.0979461916792
0.5,60.8,-18.4268435629242,-2.62014069487914,2050.55005860224,4.96820839162752,17.9926767901155,34.3685894611127,-53.7878606740611
0.5,60.85,-17.9128946086984,-2.65565138371472,2052.50049563368,4.97192079591829,17.9925050235271,34.3926604385947,-55.4693505311899
0.5,60.9,-17.4314095369863,-2.69367019296826,2054.45077289951,4.97563468409374,17.9923412189103,34.3272507025326,-57.1413929281318
0.5,60.95,-16.9780188608389,-2.73417787504162,2056.40089106096,4.97935005454906,17.9921853559835,34.1919184880579,-58.8029172236708
0.5,61,-16.5488449662655,-2.77714572342115,2058.35085077683,4.98306690568697,17.9920374145733,34.0012498958429,-60.4528031254454
0.5,61.05,-16.1404296465688,-2.82253370240628,2060.30065270342,4.98678523591765,17.9918973746133,33.7658221105216,-62.0898799835558
0.5,61.1,-15.7496820667776,-2.87028831049968,2062.25029749462,4.99050504365869,17.9917652161435,33.4928755990084,-63.7129276214986
0.5,61.15,-15.3738451849327,-2.92034016311985,2064.19978580188,4.99422632733501,17.9916409193101,33.1868007568653,-65.3206792229946
0.5,61.2,-15.0104779815415,-2.97260129438053,2066.14911827424,4.99794908537883,17.9915244643643,32.8495143627091,-66.9118269233006
0.5,61.25,-14.6574503495371,-3.02696219916588,2068.09829555834,5.0016733162296,17.9914158316619,32.480780993137,-68.4850308877802
0.5,61.3,-14.3129470268869,-3.08328866763452,2070.04731829841,5.00539901833396,17.9913150016627,32.0785195670223,-70.0389327870153
0.5,61.35,-13.9754765343537,-3.14141850658231,2071.9961871363,5.00912619014565,17.9912219549297,31.6391225613575,-71.5721746774817
0.5,61.4,-13.6438808211551,-3.20115829728603,2073.94490271151,5.0128548301255,17.9911366721286,31.1578036207144,-73.0834243412623
0.5,61.45,-13.3173413592169,-3.26228040792099,2075.89346566115,5.01658493674135,17.9910591340271,30.6289777730677,-74.5714080881523
0.5,61.5,-12.9953778754844,-3.32452055871667,2077.84187662001,5.02031650846798,17.9909893214944,30.0466676165403,-76.0349518289066
0.5,61.55,-12.6778368135517,-3.38757632471917,2079.79013622052,5.0240495437871,17.9909272155003,29.4049195837832,-77.4730308312204
0.5,61.6,-12.364867912688,-3.45110704477391,2081.7382450928,5.02778404118727,17.9908727971148,28.6982078695752,-78.8848279118424
0.5,61.65,-12.0568888250024,-3.5147356707157,2083.68620386465,5.03151999916383,17.9908260475076,27.9218007755318,-80.2697988532773
0.5,61.7,-11.7545392305042,-3.5780531161147,2085.63401316156,5.03525741621888,17.9907869479473,27.0720654860969,-81.6277425501093
0.5,61.75,-11.4586272104776,-3.64062562255147,2087.58167360674,5.03899629086123,17.9907554798007,26.1466923052711,-82.9588718375899
0.5,61.8,-11.1700715031953,-3.70200552512034,2089.52918582109,5.04273662160631,17.9907316245325,25.1448271185467,-84.2638792734607
0.5,61.85,-10.889843586623,-3.76174554496177,2091.47655042328,5.04647840697614,17.9907153637046,24.0671098170096,-85.5439905844435
0.5,61.9,-10.6189133150694,-3.819416357701,2093.42376802969,5.05022164549931,17.9907066789753,22.9156250659163,-86.8009974128547
0.5,61.95,-10.3582011822481,-3.87462670191517,2095.37083925444,5.05396633571087,17.9907055520991,21.6937788206754,-88.0372608377699
0.5,62,-10.1085393539688,-3.92704475586585,2097.31776470946,5.05771247615231,17.9907119649258,20.406118588647,-89.2556783099617
0.5,62.05,-9.87064258795238,-3.97641901521585,2099.26454500438,5.06146006537154,17.9907258994001,19.0581173688791,-90.4596093856816
0.5,62.1,-9.64508919246998,-4.02259656619971,2101.21118074668,5.06520910192278,17.990747337561,17.6559407223494,-91.6527599219912
0.5,62.15,-9.43231138047892,-4.06553658401129,2103.15767254159,5.06895958436654,17.990776261541,16.206214100924,-92.8390297449846
0.5,62.2,-9.23259380943847,-4.10531717438438,2105.10402099215,5.07271151126959,17.9908126535661,14.7158040960154,-94.0223343510911
0.5,62.25,-9.04607876904759,-4.14213432477509,2107.05022669922,5.07646488120489,17.9908564959548,13.1916233364305,-95.2064158215692
0.5,62.3,-8.87277636472795,-4.17629265673528,2108.99629026148,5.08021969275153,17.9909077711175,11.6404649219288,-96.3946607219039
0.5,62.35,-8.71257809845685,-4.2081887086547,2110.94221227543,5.0839759444947,17.9909664615562,10.0688689056495,-97.589942590357
0.5,62.4,-8.56527241814361,-4.2382884228149,2112.88799333543,5.08773363502565,17.991032549864,8.48302064396875,-98.7945035909282
0.5,62.45,-8.43056104230057,-4.267101174256,2114.8336340337,5.09149276294162,17.9911060187242,6.88867888111193,-100.009884607051
0.5,62.5,-8.30807512682717,-4.29515294356448,2116.77913496028,5.09525332684581,17.9911868509102,5.29113018857564,-101.236906602186
0.5,62.55,-8.19739059461652,-4.32296108354065,2118.72449670314,5.09901532534732,17.9912750292848,3.69516573347853,-102.475699782539
0.5,62.6,-8.09804217648287,-4.35101263816711,2120.66971984809,5.10277875706112,17.9913705367993,2.10507617416789,-103.725772097359
0.5,62.65,-8.00953590297072,-4.37974748057302,2122.61480497886,5.106543620608,17.9914733564938,0.524660641888113,-104.986105587933
0.5,62.7,-7.93135993744523,-4.40954679988404,2124.55975267705,5.1103099146145,17.9915834714958,-1.04275385674001,-106.255268194286
0.5,62.75,-7.86299375292644,-4.44072681528821,2126.5045635222,5.11407763771289,17.9917008650205,-2.59428578918844,-107.531529538482
0.5,62.8,-7.8039157328136,-4.47353711104231,2128.44923809176,5.11784678854114,17.9918255203694,-4.12746783709292,-108.812971344381
0.5,62.85,-7.75360932476571,-4.5081626971442,2130.39377696112,5.12161736574282,17.9919574209308,-5.64021314201952,-110.097585877478
0.5,62.9,-7.71156790369471,-4.54472879275963,2132.3381807036,5.12538936796712,17.9920965501784,-7.13078069167094,-111.383358536674
0.5,62.95,-7.6772985098269,-4.58330736303297,2134.28244989047,5.12916279386874,17.9922428916715,-8.59774106182104,-112.668333117409
0.5,63,-7.65032462607973,-4.62392456526421,2136.22658509096,5.13293764210792,17.9923964290538,-10.0399433771434,-113.950660093971
0.55,57,-7.99532268334316,-3.59071221577374,1927.78048722259,4.64326399183828,16.364371484641,-20.8227992083143,56.5949764307818
0.55,57.05,-8.01696262410673,-3.54547536661956,1929.72152584738,4.64700303079456,16.3644838861653,-22.2930309807163,55.2891908662771
0.55,57.1,-8.04681396803493,-3.50068094003878,1931.66241194537,4.65074363337778,16.3646043092094,-23.7763942271159,53.9664214311189
0.55,57.15,-8.08536243620119,-3.45640718058877,1933.60314621596,4.65448579799927,16.3647327337297,-25.2699972131405,52.6259748498778
0.55,57.2,-8.13310217471322,-3.41274702531118,1935.54372935582,4.65822952307806,16.3648691397974,-26.7705049942386,51.2670970871066
0.55,57.25,-8.19053257449207,-3.36981121085378,1937.4841620589,4.66197480704078,16.365013507597,-28.2740849029993,49.8889692322483
0.55,57.3,-8.25815409279349,-3.32773209434569,1939.42444501641,4.66572164832164,16.3651658174257,-29.7763428181107,48.490704289154
0.55,57.35,-8.33646268693631,-3.28666835552093,1941.36457891688,4.66947004536231,16.3653260496931,-31.2722480326555,47.0713456233489
0.55,57.4,-8.42594229252303,-3.24681078245816,1943.30456444616,4.67321999661192,16.36549418492,-32.7560441445389,45.6298681987273
0.55,57.45,-8.52705452352662,-3.20838938081116,1945.2444022874,4.67697150052695,16.3656702037376,-34.2211430612393,44.1651842845464
0.55,57.5,-8.64022441032214,-3.17168208241714,1947.18409312112,4.68072455557118,16.3658540868874,-35.6599990762705,42.6761561051663
0.55,57.55,-8.76582048520845,-3.13702535509467,1949.12363762517,4.68447916021563,16.3660458152198,-37.0639602759104,41.1616190367148
0.55,57.6,-8.90412682485137,-3.10482701482952,1951.06303647478,4.6882353129385,16.3662453696937,-38.4230956961779,39.6204205553877
0.55,57.65,-9.0553037109908,-3.07558148452884,1953.00229034256,4.69199301222511,16.3664527313758,-39.7259994021737,38.0514823711764
0.55,57.7,-9.21933232678951,-3.04988757801745,1954.94139989851,4.69575225656783,16.36666788144,-40.9595782309296,36.4538962161656
0.55,57.75,-9.39593735754788,-3.02846852636786,1956.88036581003,4.69951304446601,16.3668908011663,-42.1088403240313,34.8270677497888
0.55,57.8,-9.58447961511134,-3.01219326444152,1958.81918874196,4.70327537442596,16.3671214719406,-43.1567199108302,33.1709280105029
0.55,57.85,-9.78380922363919,-3.00209674110673,1960.75786935655,4.70703924496085,16.3673598752537,-44.0840047094266,31.4862374278286
0.55,57.9,-9.99206941110964,-2.99939489642597,1962.6964083135,4.71080465459068,16.3676059927007,-44.8694819255574,29.7750124175138
0.55,57.95,-10.2064435093212,-3.00548657282904,1964.63480626998,4.71457160184216,16.3678598059805,-45.4904936132414,28.0411061574153
0.55,58,-10.4228470850529,-3.02192962758491,1966.57306388061,4.71834008524876,16.3681212968947,-45.9241945673655,26.2909674518787
0.55,58.05,-10.6355893204357,-3.05037185623791,1968.51118179751,4.72211010335054,16.3683904473474,-46.1499233124385,24.5345741703169
0.55,58.1,-10.8370709345786,-3.09241002223907,1970.44916067029,4.72588165469415,16.3686672393443,-46.1531790773774,22.7864743740516
0.55,58.15,-11.0176561329807,-3.14934562935421,1972.38700114607,4.72965473783279,16.3689516549921,-45.931623911453,21.0667491583617
0.55,58.2,-11.1659453802354,-3.2218113880358,1974.32470386948,4.7334293513261,16.3692436764978,-45.5030844120909,19.401524505559
0.55,58.25,-11.269740731014,-3.30926975193878,1976.26226948268,4.73720549374014,16.3695432861681,-44.914462658384,17.8224297589916
0.55,58.3,-11.3179390496289,-3.4094477711353,1978.1996986254,4.7409831636473,16.3698504664089,-44.2487593829218,16.3642368635665
0.55,58.35,-11.3032910596524,-3.51787185952823,1980.1369919349,4.74476235962631,16.3701651997243,-43.6257480250548,15.0600486250117
0.55,58.4,-11.2254146948514,-3.6277664092797,1982.07415004601,4.74854308026211,16.3704874687163,-43.19184337211,13.934127468729
