"W_50 [mm]","Freq [GHz]","dB(S(1,1)) []","dB(S(2,1)) []","im(Gamma(1)) []","re(Gamma(1)) []","re(Zo(1)) []","ang_deg(S(1,1)) [deg]","ang_deg(S(2,1)) [deg]"
0.5,57,-20.8121665859714,-6.24566380578111,1879.10837518261,5.50995714156629,294.196864096828,19.129118308293,-121.955746720892
0.5,57.05,-20.9832564076384,-6.19848236916799,1881.49237967833,5.51267880456807,294.123975290861,19.2950082237191,-122.32985300711
0.5,57.1,-21.0705378304153,-6.20020807701936,1883.87546789666,5.51540480375612,294.051523364161,19.5374246093988,-122.14312011356
0.5,57.15,-21.0766638504372,-6.3848191867742,1886.25764333717,5.5181351166498,293.979506061282,19.7490661668672,-122.431439767289
0.5,57.2,-21.0072536831895,-6.48527708585212,1888.63890948045,5.52086972092929,293.907921142938,19.8332471387171,-123.944479061122
0.5,57.25,-20.8703507046182,-6.48197877146059,1891.0192697882,5.52360859443405,293.836766385863,19.7079288670587,-125.305904402672
0.5,57.3,-20.6757098833642,-6.45768299511268,1893.39872770343,5.52635171516149,293.766039582663,19.3083501973492,-126.44656493763
0.5,57.35,-20.4340337479186,-6.43070741045664,1895.77728665052,5.52909906126544,293.695738541672,18.5879524405091,-127.492574225621
0.5,57.4,-20.1562678852708,-6.4035626598442,1898.15495003544,5.53185061105479,293.625861086815,17.5177610786385,-128.505298648439
0.5,57.45,-19.853025874113,-6.37616339204097,1900.53172124577,5.53460634299207,293.556405057461,16.084671069478,-129.512412734779
0.5,57.5,-19.5341660148534,-6.34812995567812,1902.90760365095,5.5373662356921,293.487368308288,14.2891416937647,-130.527566798173
0.5,57.55,-19.2085073688052,-6.31916770880145,1905.28260060233,5.54013026792055,293.418748709149,12.1427063701637,-131.558246442288
0.5,57.6,-18.8836566927007,-6.28910327333927,1907.6567154333,5.54289841859269,293.350544144928,9.66554335965773,-132.60899281006
0.5,57.65,-18.5659174038763,-6.25786446493518,1910.02995145947,5.54567066677196,293.282752515416,6.88421270084484,-133.682825755325
0.5,57.7,-18.2602594725745,-6.22545772324779,1912.40231197875,5.5484469916687,293.215371735169,3.82957909975565,-134.781920461293
0.5,57.75,-17.9703383883353,-6.19195146359309,1914.77380027148,5.55122737263881,293.148399733383,0.534911141378831,-135.907948526522
0.5,57.8,-17.6985578388636,-6.15746499699428,1917.14441960057,5.55401178918248,293.081834453761,-2.96584383820742,-137.062256593262
0.5,57.85,-17.4461729394953,-6.12216143628199,1919.51417321161,5.5568002209429,293.015673854386,-6.63958601296813,-138.245960635857
0.5,57.9,-17.2134293517069,-6.08624322901211,1921.88306433299,5.55959264770498,292.949915907593,-10.4553482192737,-139.459993385357
0.5,57.95,-16.9997302262483,-6.04994933537778,1924.25109617604,5.56238904939411,292.884558599843,-14.3852947218046,-140.705123837767
0.5,58,-16.8038196342767,-6.01355335932999,1926.61827193512,5.56518940607491,292.819599931599,-18.4054028913969,-141.981958875074
0.5,58.05,-16.6239695074528,-5.97736213059039,1928.98459478777,5.56799369795,292.755037917203,-22.4958235291637,-143.29093254703
0.5,58.1,-16.4581576727119,-5.94171435062504,1931.35006789478,5.57080190535882,292.690870584755,-26.6409448189922,-144.632286250169
0.5,58.15,-16.3042270396249,-5.90697898266142,1933.71469440036,5.57361400877636,292.627095975989,-30.8292087136215,-146.006041853788
0.5,58.2,-16.1600195477969,-5.87355310343938,1936.07847743224,5.57642998881207,292.563712146159,-35.0527421461972,-147.411969257349
0.5,58.25,-16.0234821743551,-5.84185895602502,1938.44142010174,5.57924982620856,292.500717163916,-39.3068679958546,-148.849549667792
0.5,58.3,-15.8927454170245,-5.81233995859595,1940.80352550395,5.58207350184055,292.438109111196,-43.5895544091555,-150.317935926022
0.5,58.35,-15.7661768330093,-5.78545544150732,1943.1647967178,5.58490099671365,292.3758860831,-47.9008494534758,-151.815911414127
0.5,58.4,-15.6424133751981,-5.76167391089261,1945.52523680619,5.58773229196326,292.314046187781,-52.2423346720842,-153.341849388519
0.5,58.45,-15.5203765848447,-5.74146467744783,1947.88484881607,5.5905673688534,292.252587546333,-56.6166185652468,-154.893674967463
0.5,58.5,-15.3992744266963,-5.72528774890472,1950.2436357786,5.59340620877563,292.191508292678,-61.0268808645836,-156.468832410777
0.5,58.55,-15.2785929450954,-5.71358196770394,1952.60160070921,5.59624879324795,292.130806573453,-65.476471260362,-158.064260714322
0.5,58.6,-15.158080189502,-5.70675148321492,1954.95874660773,5.59909510391367,292.070480547904,-69.9685618830041,-159.676380843362
0.5,58.65,-15.0377241564675,-5.70515077937669,1957.31507645851,5.60194512254037,292.010528387775,-74.5058508675207,-161.301098080433
0.5,58.7,-14.9177259174712,-5.70906862912221,1959.67059323048,5.6047988310188,291.950948277201,-79.0903141364877,-162.933822896946
0.5,58.75,-14.798468699148,-5.71871150758238,1962.02529987731,5.60765621136184,291.891738412601,-83.7230035022586,-164.569513410982
0.5,58.8,-14.6804834729062,-5.73418715395835,1964.37919933749,5.61051724570345,291.832897002577,-88.4038907343929,-166.20274182137
0.5,58.85,-14.5644115894092,-5.75548911090312,1966.73229453441,5.61338191629763,291.774422267806,-93.1317588475558,-167.82778619326
0.5,58.9,-14.4509651349178,-5.7824831723245,1969.08458837649,5.61625020551738,291.716312440935,-97.9041430901901,-169.438747634472
0.5,58.95,-14.3408859482224,-5.81489671833129,1971.43608375728,5.61912209585372,291.658565766486,-102.71732458803,-171.029691310589
0.5,59,-14.2349045596896,-5.85231189548486,1973.78678355556,5.62199756991464,291.60118050075,-107.566379061302,-172.594808008803
0.5,59.05,-14.1337006261613,-5.89416350334842,1976.13669063542,5.62487661042415,291.544154911686,-112.445281382026,-174.128591218713
0.5,59.1,-14.0378666606929,-5.93974227408067,1978.48580784637,5.62775920022126,291.487487278827,-117.347064048562,-175.626023113283
0.5,59.15,-13.9478769252206,-5.98820398851105,1980.83413802347,5.630645322259,291.43117589318,-122.264024216144,-177.082761542802
0.5,59.2,-13.8640632193893,-6.03858457555393,1983.18168398736,5.63353495960348,291.375219057127,-127.187970208843,-178.495319332742
0.5,59.25,-13.786598946264,-6.08982101358891,1985.52844854442,5.63642809543408,291.319615084332,-132.110495041558,-179.861226896074
0.5,59.3,-13.7154922929036,-6.14077751729191,1987.87443448681,5.63932471304299,291.264362299645,-137.023261996593,178.820830525006
0.5,59.35,-13.6505886969832,-6.19027617641647,1990.21964459264,5.64222479581833,291.20945903901,-141.918286200407,177.550908791708
0.5,59.4,-13.591582072503,-6.23713093730827,1992.56408162597,5.64512832727946,291.154903649367,-146.78819666981,176.327740374532
0.5,59.45,-13.5380336378334,-6.28018360315275,1994.90774833698,5.64803529104158,291.100694488565,-151.626465389152,175.148713992726
0.5,59.5,-13.4893967132357,-6.31834039052614,1997.25064746202,5.65094567082934,291.046829925271,-156.427593310277,174.009900793611
0.5,59.55,-13.4450455865357,-6.35060752842212,1999.59278172372,5.65385945047415,290.993308338876,-161.187247210708,172.906127148756
0.5,59.6,-13.4043064991989,-6.37612442685862,2001.93415383107,5.65677661391321,290.940128119409,-165.902345506108,171.83109179689
0.5,59.65,-13.3664889574589,-6.39419307434891,2004.27476647951,5.65969714518853,290.887287667446,-170.571094847337,170.777522867482
0.5,59.7,-13.3309158737303,-6.40430253830815,2006.61462235103,5.6626210284461,290.834785394026,-175.192982244093,169.737368443845
0.5,59.75,-13.2969514283992,-6.40614772288384,2008.95372411427,5.665548247935,290.782619720561,-179.7687293417,168.702012924465
0.5,59.8,-13.2640259479188,-6.39964185977968,2011.29207442455,5.66847878800657,290.730789078752,175.699783683024,167.662510631927
0.5,59.85,-13.2316574695607,-6.38492253846795,2013.62967592403,5.67141263311352,290.679291910506,171.209617219391,166.609827956119
0.5,59.9,-13.1994699699547,-6.36235138964142,2015.96653124175,5.67434976780915,290.628126667845,166.756887707652,165.535085780561
0.5,59.95,-13.1672084543957,-6.33250778950809,2018.30264299373,5.67729017674647,290.577291812834,162.336894141825,164.429794924471
0.5,60,-13.1347512317999,-6.29617713012742,2020.63801378306,5.68023384467743,290.526785817486,157.944251678699,163.28607866405
0.5,60.05,-13.1021197413798,-6.25433429194852,2022.97264619998,5.68318075645206,290.476607163692,153.573029919522,162.09687785468
0.5,60.1,-13.0694862627869,-6.20812296260957,2025.30654282195,5.68613089701769,290.426754343131,149.216894775785,160.856135531749
0.5,60.15,-13.0371797455033,-6.15883138813481,2027.63970621374,5.68908425141815,290.377225857195,144.86925392875,159.558958921084
0.5,60.2,-13.0056898501339,-6.10786504707008,2029.97213892753,5.69204080479302,290.328020216912,140.523406661893,158.201757403368
0.5,60.25,-12.975669118432,-6.05671663929622,2032.30384350299,5.69500054237675,290.279135942859,136.172699223163,156.782355101219
0.5,60.3,-12.9479329954009,-6.00693371433743,2034.63482246732,5.697963449498,290.230571565094,131.810686806661,155.300076442863
0.5,60.35,-12.9234572326037,-5.96008425860995,2036.96507833537,5.70092951157883,290.182325623074,127.431302684392,153.75580244887
0.5,60.4,-12.9033720275006,-5.91772063579446,2039.29461360972,5.7038987141339,290.134396665579,123.029033931737,152.15199481259
0.5,60.45,-12.8889521250065,-5.88134243217738,2041.62343078073,5.70687104276979,290.086783250638,118.599101563991,150.492684371835
0.5,60.5,-12.8816020558581,-5.85235898364956,2043.95153232665,5.70984648318423,290.039483945454,114.137640772107,148.783420571882
0.5,60.55,-12.8828357471522,-5.83205261873504,2046.27892071368,5.71282502116535,289.992497326329,109.641874427749,147.031179219546
0.5,60.6,-12.8942499484569,-5.82154389316865,2048.60559839605,5.71580664259096,289.945821978594,105.110270343965,145.244227340034
0.5,60.65,-12.9174912987125,-5.82176025926726,2050.93156781609,5.71879133342784,289.899456496533,100.542670279256,143.431946235966
0.5,60.7,-12.9542174219041,-5.83340965420433,2053.25683140432,5.72177907973103,289.853399483311,95.9403768344137,141.604616702078
0.5,60.75,-13.0060531588786,-5.85696036773245,2055.58139157951,5.72476986764309,289.807649550907,91.3061837638043,139.773173402509
0.5,60.8,-13.0745438532854,-5.89262825113261,2057.90525074878,5.72776368339344,289.76220532004,86.644336334744,137.94893820183
0.5,60.85,-13.1611084029858,-5.94037187721136,2060.22841130764,5.73076051329762,289.7170654201,81.9604115823822,136.143344276809
0.5,60.9,-13.2669954236321,-5.99989570933221,2062.55087564008,5.73376034375667,289.672228489079,77.2611136565942,134.367663737844
0.5,60.95,-13.3932462008174,-6.07066076094636,2064.87264611866,5.7367631612564,289.627693173505,72.5539865198865,132.632751055377
0.5,61,-13.5406680138887,-6.15190170768455,2067.19372510454,5.73976895236669,289.58345812837,67.8470541231304,130.948812848319
0.5,61.05,-13.7098208501231,-6.24264902323723,2069.5141149476,5.74277770374091,289.539522017067,63.1484055795159,129.325211804638
0.5,61.1,-13.9010195407804,-6.34175449517354,2071.83381798646,5.74578940211519,289.495883511318,58.4657483828955,127.770309089468
0.5,61.15,-14.1143520875877,-6.44791845319029,2074.15283654861,5.74880403430777,289.452541291117,53.8059552074763,126.291346044243
0.5,61.2,-14.3497136278855,-6.55971719477679,2076.47117295043,5.75182158721839,289.409494044657,49.1746286536414,124.894362753542
0.5,61.25,-14.6068543484274,-6.67562938296413,2078.78882949728,5.75484204782762,289.366740468266,44.5757035482688,123.584148509839
0.5,61.3,-14.8854389054684,-6.79406056581397,2081.10580848356,5.75786540319622,289.32427926635,40.0110988107518,122.364217547134
0.5,61.35,-15.1851146669111,-6.91336537378992,2083.42211219281,5.76089164046452,289.282109151322,35.4804216238343,121.236802699509
0.5,61.4,-15.5055863899691,-7.03186734193367,2085.73774289772,5.76392074685181,289.240228843542,30.980716936976,120.202859803595
0.5,61.45,-15.8466957319332,-7.14787664300952,2088.05270286024,5.76695270965568,289.198637071255,26.5062461350686,119.262076557759
0.5,61.5,-16.2085051620683,-7.25970628217355,2090.36699433166,5.76998751625146,289.157332570532,22.0482704481577,118.412880990074
0.5,61.55,-16.5913872952391,-7.36568748093892,2092.68061955263,5.77302515409158,289.116314085203,17.5948071150877,117.652446481416
0.5,61.6,-16.9961223324224,-7.46418506413177,2094.99358075324,5.77606561070498,289.075580366802,13.1303184895677,116.976692262748
0.5,61.65,-17.4240081585651,-7.55361365944247,2097.30588015313,5.77910887369652,289.035130174507,8.63528446514393,116.380280300477
0.5,61.7,-17.8769897706701,-7.63245542983897,2099.61751996148,5.78215493074635,288.994962275076,4.08559409399828,115.856611361044
0.5,61.75,-18.3578172024657,-7.69927989213029,2101.92850237714,5.78520376960941,288.955075442799,-0.548331137506503,115.397824676568
0.5,61.8,-18.870244107595,-7.75276614133509,2104.23882958865,5.78825537811477,288.915468459434,-5.30280916637993,114.994806894173
0.5,61.85,-19.419282697848,-7.79172751586631,2106.54850377433,5.79130974416509,288.87614011419,-10.2227582953189,114.637216767978
0.5,61.9,-20.0115344461137,-7.81513842432336,2108.85752710234,5.79436685573607,288.837089204284,-15.3644583201135,114.313532249645
0.5,61.95,-20.6556182613256,-7.82216273828289,2111.16590173071,5.79742670087584,288.79831453023,-20.7997320211369,114.011126195444
0.5,62,-21.3627135503689,-7.81218286853023,2113.47362980745,5.80048926770446,288.759814907439,-26.6224501366826,113.71637584181
0.5,62.05,-22.1472092079252,-7.78482841657715,2115.78071347057,5.80355454441332,288.721589152091,-32.9589824421928,113.414809596345
0.5,62.1,-23.027355375748,-7.7400031552711,2118.08715484818,5.80662251926463,288.683636089685,-39.9855950950239,113.091292723787
0.5,62.15,-24.0255159069378,-7.67790905550581,2120.39295605852,5.80969318059084,288.645954552671,-47.9584262217643,112.73025142579
0.5,62.2,-25.1666982474313,-7.59906613589885,2122.69811921003,5.81276651679415,288.608543380502,-57.2663842240208,112.315932899903
0.5,62.25,-26.4712238728731,-7.50432704342905,2125.00264640139,5.81584251634593,288.571401419593,-68.5233914346904,111.83269746622
0.5,62.3,-27.9292263143074,-7.3948854318646,2127.30653972163,5.81892116778623,288.534527523271,-82.7087174402721,111.265337915613
0.5,62.35,-29.4265041827664,-7.27227733811004,2129.60980125014,5.82200245972324,288.497920551722,-101.247262816162,110.599420839586
0.5,62.4,-30.5983495273216,-7.13837481510249,2131.91243305674,5.82508638083277,288.461579371941,-125.374648764917,109.82164462495
0.5,62.45,-30.8419226278658,-6.9953710349573,2134.21443720175,5.82817291985776,288.42550285768,-153.638152601486,108.920208621996
0.5,62.5,-29.9620152027203,-6.84575593598025,2136.51581573605,5.83126206560774,288.389689889396,179.206831795761,107.885187184808
0.5,62.55,-28.4891145145777,-6.69228130903277,2138.8165707011,5.83435380695835,288.354139354203,156.88153541984,106.708900300598
0.5,62.6,-26.9681468823612,-6.53791411167423,2141.11670412904,5.83744813285085,288.318850145816,139.204374662073,105.386269011256
0.5,62.65,-25.6368785567047,-6.38577691355929,2143.41621804273,5.84054503229158,288.283821164511,124.803955207184,103.915138801472
0.5,62.7,-24.5524362626786,-6.23907487911866,2145.71511445581,5.84364449435153,288.249051317065,112.620722455651,102.29654816618
0.5,62.75,-23.7051268954952,-6.10100971649493,2148.01339537272,5.84674650816581,288.214539516714,102.025515456576,100.534913932574
0.5,62.8,-23.0649198243976,-5.97468260338028,2150.31106278882,5.84985106293318,288.180284683105,92.6605049225769,98.6381014701623
0.5,62.85,-22.5977567358041,-5.86299012178361,2152.60811869039,5.85295814791561,288.146285742243,84.311510319802,96.6173488451921
0.5,62.9,-22.2713725535028,-5.76851938121152,2154.9045650547,5.85606775243774,288.112541626448,76.8353599684681,94.4870211233305
0.5,62.95,-22.0574099507762,-5.693450295819,2157.20040385008,5.85917986588648,288.079051274305,70.123435880583,92.2641851503665
0.5,63,-21.9320130550393,-5.63947384583052,2159.49563703595,5.86229447771049,288.045813630621,64.085059279278,89.968015170443
0.55,57,-20.0096692330559,-5.67160999895266,1949.13870346561,5.30061022355958,266.424341085084,7.43918231356006,-121.063488094277
0.55,57.05,-20.0803953277195,-5.70361471315389,1951.4362473872,5.30370389085008,266.384441691482,7.20974005950083,-122.121601048763
0.55,57.1,-20.0837020201325,-5.72808296889229,1953.73311552627,5.30680037829839,266.344829723652,7.09456864017101,-123.140503387099
0.55,57.15,-20.0184732826816,-5.74264654421453,1956.02931029092,5.30989967286423,266.30550385479,6.97410655109269,-124.146927291678
0.55,57.2,-19.8891092201496,-5.74788096641216,1958.32483407728,5.31300176159104,266.266462766685,6.74037003337326,-125.169130218225
0.55,57.25,-19.70398885041,-5.74624808725516,1960.61968926952,5.31610663160538,266.227705149651,6.30783181716171,-126.224435716691
0.55,57.3,-19.4736140126288,-5.74042058246552,1962.91387823998,5.31921427011618,266.189229702453,5.61780981085958,-127.317587661276
0.55,57.35,-19.2089594679502,-5.73236291109424,1965.20740334921,5.32232466441408,266.151035132239,4.63726312774799,-128.445717813063
0.55,57.4,-18.9203104213087,-5.72321911733237,1967.50026694607,5.32543780187081,266.113120154477,3.35422695254065,-129.603373053393
0.55,57.45,-18.6166225727773,-5.71353737823896,1969.7924713678,5.32855366993846,266.075483492881,1.7721214956257,-130.785286554942
0.55,57.5,-18.3052945182244,-5.70351758585981,1972.08401894009,5.3316722561489,266.038123879348,-0.0955551534274469,-131.987354816442
0.55,57.55,-17.9922018493656,-5.69318521251534,1974.37491197714,5.33479354811304,266.00104005389,-2.22945397751078,-133.206734777755
0.55,57.6,-17.681863851913,-5.68249338972574,1976.66515278179,5.3379175335203,265.964230764568,-4.60740061013091,-134.441639043144
0.55,57.65,-17.3776554589524,-5.67137737577469,1978.95474364553,5.34104420013787,265.927694767428,-7.20639078436976,-135.6910850617
0.55,57.7,-17.0820154897508,-5.6597819884157,1981.2436868486,5.34417353581015,265.891430826439,-10.00381818321,-136.954683130999
0.55,57.75,-16.796629278126,-5.6476750353048,1983.53198466006,5.34730552845812,265.855437713422,-12.978182474557,-138.232478004372
0.55,57.8,-16.5225798767868,-5.63505407545387,1985.81963933787,5.35044016607867,265.819714207995,-16.1094707937767,-139.524836046442
0.55,57.85,-16.2604701181393,-5.62195039899616,1988.10665312896,5.35357743674407,265.784259097506,-19.379346827436,-140.832365286092
0.55,57.9,-16.0105209566927,-5.60843221145725,1990.39302826927,5.35671732860129,265.74907117697,-22.771232338664,-142.155856876748
0.55,57.95,-15.7726519581993,-5.59460800039212,1992.67876698387,5.35985982987146,265.714149249011,-26.2703299199136,-143.496238748628
0.55,58,-15.5465489662532,-5.58063052703456,1994.96387148699,5.36300492884924,265.6794921238,-29.8636117798386,-144.854534170007
0.55,58.05,-15.3317226972283,-5.56670158228537,1997.24834398211,5.36615261390225,265.645098618992,-33.5397848489947,-146.231819227178
0.55,58.1,-15.127560731414,-5.55307744047339,1999.53218666201,5.3693028734705,265.610967559671,-37.2892347430135,-147.629173961948
0.55,58.15,-14.9333742916257,-5.54007475926556,2001.81540170887,5.37245569606576,265.577097778286,-41.1039478779872,-149.0476222529
0.55,58.2,-14.7484404047387,-5.5280764636606,2004.09799129429,5.37561107027107,265.543488114596,-44.9774105209387,-150.488055707862
0.55,58.25,-14.5720395242492,-5.51753688731833,2006.37995757941,5.3787689847401,265.510137415611,-48.9044844812757,-151.951137102026
0.55,58.3,-14.4034884105539,-5.50898511068669,2008.66130271493,5.38192942819664,265.477044535534,-52.8812606190446,-153.437179559464
0.55,58.35,-14.2421679608416,-5.50302503554062,2010.94202884121,5.38509238943403,265.444208335704,-56.9048928131894,-154.945999126296
0.55,58.4,-14.0875456918225,-5.50033030076396,2013.22213808829,5.3882578573146,265.41162768454,-60.973416215041,-156.476741089793
