W_50 [mm],Freq [GHz],"dB(S(1,1)) []","dB(S(2,1)) []",im(Gamma(1:1)) [],re(Gamma(1:1)) [],re(Zo(1:1)) [],"ang_deg(S(1,1)) [deg]","ang_deg(S(2,1)) [deg]"
0.5,57,-14.54502352,-4.949241607,1862.188804,5.513613396,131.8834965,-150.386244,-127.6419137
0.5,57.05,-14.58724991,-4.903940916,1864.562417,5.516339324,131.839348,-153.7262054,-129.4739118
0.5,57.1,-14.64310003,-4.859447552,1866.935116,5.51906974,131.7953987,-157.0818001,-131.3364403
0.5,57.15,-14.71357667,-4.816016636,1869.306904,5.521804621,131.7516475,-160.4396102,-133.2312281
0.5,57.2,-14.79951339,-4.773967081,1871.677786,5.524543945,131.7080934,-163.7836157,-135.1601801
0.5,57.25,-14.90146392,-4.733699191,1874.047763,5.527287688,131.6647352,-167.0949946,-137.1253482
0.5,57.3,-15.01955869,-4.695715551,1876.416841,5.530035829,131.621572,-170.3520794,-139.1288667
0.5,57.35,-15.15332808,-4.660644585,1878.785022,5.532788346,131.5786027,-173.5305867,-141.1728384
0.5,57.4,-15.30150025,-4.629265097,1881.15231,5.535545215,131.5358263,-176.6042693,-143.2591504
0.5,57.45,-15.46179346,-4.602528398,1883.518709,5.538306417,131.4932418,-179.5461604,-145.3891994
0.5,57.5,-15.63074124,-4.581572168,1885.88422,5.541071928,131.4508482,177.6694489,-147.5635063
0.5,57.55,-15.80360871,-4.567717249,1888.248849,5.543841727,131.4086444,175.064255,-149.7812165
0.5,57.6,-15.97447314,-4.562435736,1890.612599,5.546615793,131.3666295,172.6525839,-152.0395062
0.5,57.65,-16.13653814,-4.567277617,1892.975472,5.549394105,131.3248025,170.4379081,-154.3329625
0.5,57.7,-16.282713,-4.583746213,1895.337473,5.552176642,131.2831624,168.4100611,-156.653067
0.5,57.75,-16.4064121,-4.613122534,1897.698603,5.554963382,131.2417082,166.5441479,-158.9879737
0.5,57.8,-16.50243137,-4.656256366,1900.058868,5.557754304,131.2004389,164.801972,-161.3227953
0.5,57.85,-16.56768542,-4.713364177,1902.41827,5.560549389,131.1593537,163.1361519,-163.640562
0.5,57.9,-16.60159393,-4.783891099,1904.776812,5.563348616,131.1184514,161.496185,-165.9238472
0.5,57.95,-16.60600655,-4.866493299,1907.134497,5.566151963,131.0777313,159.834968,-168.1568171
0.5,58,-16.58470919,-4.959169867,1909.491329,5.568959412,131.0371923,158.1141456,-170.3272394
0.5,58.05,-16.5426825,-5.059526207,1911.847311,5.571770942,130.9968336,156.3071913,-172.4279156
0.5,58.1,-16.48532463,-5.165105235,1914.202447,5.574586532,130.9566541,154.399999,-174.4571618
0.5,58.15,-16.41780662,-5.273702211,1916.556739,5.577406164,130.916653,152.389505,-176.4182737
0.5,58.2,-16.34464179,-5.383593143,1918.91019,5.580229818,130.8768293,150.2812037,-178.3182298
0.5,58.25,-16.26947119,-5.493644392,1921.262804,5.583057473,130.8371822,148.0863674,179.8339409
0.5,58.3,-16.19501941,-5.603311063,1923.614583,5.585889111,130.7977107,145.8195282,178.0287173
0.5,58.35,-16.12316032,-5.71255728,1925.965532,5.588724712,130.7584139,143.4964902,176.2573044
0.5,58.4,-16.05503894,-5.821738064,1928.315653,5.591564258,130.719291,141.1329266,174.5124169
0.5,58.45,-15.99121054,-5.931475521,1930.664948,5.594407728,130.6803411,138.7434926,172.7886648
0.5,58.5,-15.93177336,-6.042549676,1933.013422,5.597255105,130.6415632,136.3413365,171.082643
0.5,58.55,-15.8764831,-6.15581264,1935.361077,5.60010637,130.6029566,133.9378908,169.3928379
0.5,58.6,-15.82484522,-6.272126734,1937.707916,5.602961504,130.5645203,131.5428415,167.7194484
0.5,58.65,-15.77618547,-6.392322806,1940.053943,5.605820488,130.5262535,129.1641982,166.0641854
0.5,58.7,-15.72970143,-6.517173387,1942.39916,5.608683304,130.4881553,126.8084118,164.4300933
0.5,58.75,-15.68449823,-6.647375281,1944.743569,5.611549934,130.4502249,124.480502,162.8214105
0.5,58.8,-15.63961218,-6.783536869,1947.087176,5.61442036,130.4124615,122.1841717,161.2434772
0.5,58.85,-15.59402524,-6.926166231,1949.429981,5.617294564,130.3748641,119.921893,159.7026875
0.5,58.9,-15.5466735,-7.075656883,1951.771988,5.620172528,130.3374321,117.6949535,158.2064796
0.5,58.95,-15.4964521,-7.232268436,1954.113201,5.623054234,130.3001645,115.5034589,156.7633541
0.5,59,-15.44221954,-7.39609978,1956.453621,5.625939664,130.2630605,113.3462842,155.3829063
0.5,59.05,-15.3828041,-7.567052606,1958.793252,5.628828802,130.2261193,111.2209739,154.0758573
0.5,59.1,-15.31701559,-7.744783245,1961.132097,5.631721629,130.1893402,109.1235885,152.85406
0.5,59.15,-15.24366654,-7.928641244,1963.470158,5.634618129,130.1527222,107.0485037,151.7304502
0.5,59.2,-15.16160711,-8.117593873,1965.807439,5.637518284,130.1162647,104.9881726,150.7189035
0.5,59.25,-15.06977915,-8.310137448,1968.143942,5.640422078,130.0799667,102.9328769,149.8339453
0.5,59.3,-14.96729432,-8.504199217,1970.47967,5.643329492,130.0438276,100.8705067,149.0902483
0.5,59.35,-14.85354069,-8.697038177,1972.814627,5.646240511,130.0078465,98.78643746,148.5018465
0.5,59.4,-14.72831871,-8.885159939,1975.148813,5.649155118,129.9720227,96.66359581,148.0809923
0.5,59.45,-14.59200159,-9.064269325,1977.482233,5.652073296,129.9363554,94.48283694,147.8366114
0.5,59.5,-14.44570536,-9.22929343,1979.81489,5.654995029,129.9008438,92.22376535,147.772371
0.5,59.55,-14.29144031,-9.374514032,1982.146785,5.6579203,129.8654872,89.86611202,147.884484
0.5,59.6,-14.13220159,-9.493845706,1984.477922,5.660849093,129.8302848,87.39170306,148.1595357
0.5,59.65,-13.97194682,-9.581278004,1986.808304,5.663781392,129.7952358,84.78690607,148.5727915
0.5,59.7,-13.81541238,-9.631462269,1989.137932,5.66671718,129.7603396,82.04522955,149.0875686
0.5,59.75,-13.66774488,-9.64037054,1991.466811,5.669656443,129.7255953,79.16953531,149.6562213
0.5,59.8,-13.53397292,-9.605903064,1993.794942,5.672599164,129.6910022,76.17321043,150.2230151
0.5,59.85,-13.41840397,-9.528299335,1996.122328,5.675545327,129.6565597,73.07974932,150.7286798
0.5,59.9,-13.32407676,-9.410236961,1998.448972,5.678494916,129.6222669,69.92056329,151.1158862
0.5,59.95,-13.25240365,-9.256580967,2000.774877,5.681447917,129.5881232,66.73136386,151.3345511
0.5,60,-13.20308764,-9.073842197,2003.100044,5.684404314,129.5541278,63.54792841,151.3459141
0.5,60.05,-13.17431604,-8.869474886,2005.424478,5.68736409,129.5202801,60.40222286,151.124729
0.5,60.1,-13.16315366,-8.651162952,2007.748179,5.690327232,129.4865792,57.31965405,150.6594782
0.5,60.15,-13.16601893,-8.426214912,2010.071152,5.693293724,129.4530245,54.31778501,149.9509827
0.5,60.2,-13.17913329,-8.201132288,2012.393398,5.696263551,129.4196154,51.40639712,149.0100206
0.5,60.25,-13.19887278,-7.981362899,2014.71492,5.699236698,129.3863511,48.58850045,147.8545658
0.5,60.3,-13.22199619,-7.771213885,2017.035721,5.702213149,129.3532309,45.86182046,146.5071156
0.5,60.35,-13.24575884,-7.573882927,2019.355803,5.705192892,129.3202541,43.22036858,144.9923933
0.5,60.4,-13.26793881,-7.391564658,2021.675169,5.70817591,129.2874201,40.6558457,143.3355426
0.5,60.45,-13.28680631,-7.225596139,2023.993821,5.711162189,129.2547282,38.15876218,141.5608245
0.5,60.5,-13.30106283,-7.076614839,2026.311762,5.714151715,129.2221777,35.71925396,139.690759
0.5,60.55,-13.30976902,-6.944711745,2028.628994,5.717144473,129.1897679,33.32762843,137.7456287
0.5,60.6,-13.31227342,-6.829569583,2030.94552,5.720140449,129.1574982,30.97469544,135.7432573
0.5,60.65,-13.30814854,-6.730581473,2033.261341,5.723139629,129.125368,28.65194051,133.6989842
0.5,60.7,-13.29713686,-6.646948851,2035.576462,5.726141998,129.0933764,26.35158988,131.6257707
0.5,60.75,-13.27910722,-6.577759637,2037.890883,5.729147544,129.061523,24.0666061,129.5343851
0.5,60.8,-13.25402077,-6.522048764,2040.204608,5.732156251,129.0298071,21.79064226,127.4336319
0.5,60.85,-13.22190514,-6.478843693,2042.517639,5.735168106,128.998228,19.51797438,125.3305954
0.5,60.9,-13.18283538,-6.44719757,2044.829979,5.738183095,128.966785,17.24342445,123.2308828
0.5,60.95,-13.13692035,-6.426212549,2047.141629,5.741201205,128.9354776,14.96228224,121.1388537
0.5,61,-13.08429339,-6.41505547,2049.452592,5.744222421,128.9043052,12.67023024,119.0578314
0.5,61.05,-13.02510639,-6.412967793,2051.76287,5.747246731,128.873267,10.36327411,116.9902933
0.5,61.1,-12.95952626,-6.419271292,2054.072467,5.750274121,128.8423624,8.037679852,114.9380387
0.5,61.15,-12.88773362,-6.433370746,2056.381383,5.753304578,128.811591,5.689917722,112.902338
0.5,61.2,-12.80992284,-6.454754568,2058.689622,5.756338088,128.7809519,3.316612677,110.8840634
0.5,61.25,-12.72630341,-6.482994072,2060.997186,5.759374638,128.7504447,0.914500973,108.8838042
0.5,61.3,-12.63710222,-6.517741902,2063.304078,5.762414216,128.7200687,-1.51960765,106.9019707
0.5,61.35,-12.54256667,-6.558729953,2065.610298,5.765456807,128.6898233,-3.988862646,104.938889
0.5,61.4,-12.44296835,-6.605766985,2067.915851,5.7685024,128.6597079,-6.496400572,102.9948898
0.5,61.45,-12.33860731,-6.658736006,2070.220737,5.771550981,128.6297219,-9.045368457,101.0703945
0.5,61.5,-12.22981679,-6.717591357,2072.52496,5.774602538,128.5998648,-11.63894271,99.1660015
0.5,61.55,-12.11696824,-6.782355334,2074.828522,5.777657058,128.5701358,-14.28034349,97.28257573
0.5,61.6,-12.00047667,-6.853114014,2077.131424,5.780714528,128.5405346,-16.97284421,95.42134377
0.5,61.65,-11.88080608,-6.930011837,2079.433669,5.783774936,128.5110604,-19.71977579,93.58399737
0.5,61.7,-11.75847493,-7.013244247,2081.73526,5.786838269,128.4817126,-22.52452493,91.77280752
0.5,61.75,-11.63406142,-7.103047549,2084.036198,5.789904516,128.4524908,-25.39052556,89.99075021
0.5,61.8,-11.50820828,-7.199684812,2086.336487,5.792973663,128.4233944,-28.32124259,88.24164437
0.5,61.85,-11.38162686,-7.303426383,2088.636127,5.796045698,128.3944227,-31.32014646,86.53030016
0.5,61.9,-11.25509995,-7.414523293,2090.935121,5.79912061,128.3655752,-34.39067764,84.86267322
0.5,61.95,-11.12948305,-7.533171505,2093.233471,5.802198386,128.3368514,-37.53619922,83.24601591
0.5,62,-11.00570325,-7.659464848,2095.531181,5.805279014,128.3082507,-40.75993672,81.68901041
0.5,62.05,-10.8847553,-7.793334545,2097.82825,5.808362483,128.2797725,-44.06490345,80.20186044
0.5,62.1,-10.76769388,-7.934473826,2100.124683,5.81144878,128.2514163,-47.45381083,78.79630719
0.5,62.15,-10.65562149,-8.082247454,2102.42048,5.814537893,128.2231816,-50.92896271,77.48552289
0.5,62.2,-10.54967124,-8.235588527,2104.715645,5.817629812,128.1950677,-54.49213396,76.28382252
0.5,62.25,-10.45098387,-8.392888988,2107.010179,5.820724523,128.1670742,-58.14443391,75.206125
0.5,62.3,-10.36067903,-8.551896132,2109.304084,5.823822017,128.1392006,-61.88615619,74.26709585
0.5,62.35,-10.27982079,-8.709634782,2111.597362,5.82692228,128.1114462,-65.71661792,73.47992294
0.5,62.4,-10.20937862,-8.862382375,2113.890017,5.830025303,128.0838106,-69.63399195,72.85472721
0.5,62.45,-10.15018534,-9.005729266,2116.182048,5.833131072,128.0562932,-73.63513787,72.39669855
0.5,62.5,-10.10289501,-9.13475473,2118.473459,5.836239578,128.0288936,-77.71543897,72.10417183
0.5,62.55,-10.06794415,-9.244335568,2120.764253,5.839350809,128.0016111,-81.86865463,71.966994
0.5,62.6,-10.04552087,-9.329576239,2123.054429,5.842464753,127.9744453,-86.08680037,71.96562764
0.5,62.65,-10.03554626,-9.386310506,2125.343992,5.8455814,127.9473957,-90.3600706,72.07141763
0.5,62.7,-10.03767241,-9.411587019,2127.632942,5.848700738,127.9204617,-94.67682197,72.24826234
0.5,62.75,-10.05129968,-9.404033378,2129.921283,5.851822757,127.8936428,-99.02363712,72.45559029
0.5,62.8,-10.07561399,-9.364009999,2132.209015,5.854947446,127.8669386,-103.3854877,72.65215804
0.5,62.85,-10.10964169,-9.29351618,2134.496141,5.858074793,127.8403485,-107.7460108,72.79991966
0.5,62.9,-10.15231703,-9.195877139,2136.782663,5.861204788,127.813872,-112.0879033,72.86720348
0.5,62.95,-10.20255426,-9.075294274,2139.068583,5.864337421,127.7875087,-116.3934229,72.83067244
0.5,63,-10.25931564,-8.936361385,2141.353903,5.86747268,127.761258,-120.6449684,72.67591906
0.55,57,-13.93022636,-4.935389446,1932.021015,5.306827705,115.8258927,-150.1043979,-128.2370959
0.55,57.05,-13.92329757,-4.922674025,1934.307464,5.30993118,115.7981013,-153.1566051,-130.079863
0.55,57.1,-13.92601781,-4.9083818,1936.593242,5.313037595,115.7704355,-156.2627098,-131.9152356
0.55,57.15,-13.93929758,-4.892192282,1938.878351,5.316146937,115.7428949,-159.4155358,-133.7492817
0.55,57.2,-13.96398683,-4.873964636,1941.162794,5.319259193,115.7154787,-162.6063059,-135.5887746
0.55,57.25,-14.00082857,-4.853774644,1943.446573,5.322374349,115.6881863,-165.8245171,-137.4409997
0.55,57.3,-14.05040147,-4.831948909,1945.729691,5.325492393,115.6610173,-169.0578567,-139.3134775
0.55,57.35,-14.1130502,-4.809091818,1948.012149,5.328613311,115.6339709,-172.2921809,-141.2135937
0.55,57.4,-14.1888034,-4.786099605,1950.293951,5.331737092,115.6070466,-175.5115921,-143.1481416
0.55,57.45,-14.27727995,-4.764155248,1952.575099,5.334863723,115.5802439,-178.6986535,-145.1227937
0.55,57.5,-14.37758683,-4.744698341,1954.855595,5.337993191,115.553562,178.1652041,-147.1415425
0.55,57.55,-14.48821507,-4.729365993,1957.135441,5.341125483,115.5270005,175.0990249,-149.2061679
0.55,57.6,-14.60694586,-4.719904427,1959.414639,5.344260588,115.5005589,172.121359,-151.3158073
0.55,57.65,-14.73078555,-4.718056034,1961.693193,5.347398493,115.4742364,169.2489357,-153.4667081
0.55,57.7,-14.85595658,-4.725432336,1963.971104,5.350539185,115.4480325,166.494981,-155.6522309
0.55,57.75,-14.97797712,-4.743387994,1966.248375,5.353682653,115.4219468,163.8672607,-157.8631396
0.55,57.8,-15.09186292,-4.772913219,1968.525007,5.356828884,115.3959786,161.3660635,-160.0881701
0.55,57.85,-15.19247269,-4.814560354,1970.801004,5.359977867,115.3701273,158.9824934,-162.314815
0.55,57.9,-15.27498979,-4.868415079,1973.076367,5.363129589,115.3443925,156.6975662,-164.5302221
0.55,57.95,-15.335488,-4.934114811,1975.351099,5.366284039,115.3187735,154.482624,-166.7220851
0.55,58,-15.37148143,-5.010908722,1977.625202,5.369441205,115.2932699,152.3013937,-168.8794109
0.55,58.05,-15.38232948,-5.097747443,1979.898678,5.372601075,115.2678811,150.1136196,-170.9930818
0.55,58.1,-15.3693815,-5.193387585,1982.171529,5.375763638,115.2426065,147.8797019,-173.0561734
0.55,58.15,-15.33580775,-5.296496639,1984.443757,5.378928881,115.2174456,145.5653874,-175.0640349
0.55,58.2,-15.28615126,-5.405746981,1986.715366,5.382096794,115.1923979,143.1455002,-177.0141702
0.55,58.25,-15.22571151,-5.519891995,1988.986356,5.385267366,115.1674628,140.6060024,-178.9059756
0.55,58.3,-15.15990223,-5.637821667,1991.256731,5.388440584,115.1426399,137.9441922,179.2596056
0.55,58.35,-15.09370657,-5.758598342,1993.526491,5.391616438,115.1179286,135.1673435,177.4804616
0.55,58.4,-15.03130134,-5.881475452,1995.795641,5.394794916,115.0933284,132.290375,175.7536847
0.55,58.45,-14.97586586,-6.005903016,1998.06418,5.397976007,115.0688388,129.3331832,174.0759162
0.55,58.5,-14.92954907,-6.131523695,2000.332113,5.4011597,115.0444593,126.3181365,172.4436501
0.55,58.55,-14.89354878,-6.258162757,2002.59944,5.404345985,115.0201893,123.2680287,170.8534969
0.55,58.6,-14.86825446,-6.385814451,2004.866164,5.407534849,114.9960284,120.2046032,169.3024113
0.55,58.65,-14.85341329,-6.514626454,2007.132287,5.410726283,114.971976,117.1476235,167.7878931
0.55,58.7,-14.84829164,-6.644883191,2009.397811,5.413920276,114.9480317,114.1143996,166.3081723
0.55,58.75,-14.85181553,-6.776988026,2011.662738,5.417116817,114.9241949,111.1196493,164.8623893
0.55,58.8,-14.8626826,-6.911443542,2013.927071,5.420315894,114.9004652,108.1755816,163.4507808
0.55,58.85,-14.87944426,-7.048828395,2016.190811,5.423517499,114.8768421,105.2921059,162.0748795
0.55,58.9,-14.90056008,-7.189768397,2018.45396,5.426721619,114.8533251,102.4770922,160.7377338
0.55,58.95,-14.92442788,-7.334898638,2020.716521,5.429928245,114.8299137,99.73662823,159.4441483
0.55,59,-14.94939399,-7.484812509,2022.978495,5.433137367,114.8066075,97.07523244,158.2009405
0.55,59.05,-14.97374771,-7.63999259,2025.239884,5.436348973,114.7834059,94.49599234,157.0171945
0.55,59.1,-14.9957045,-7.800717685,2027.500692,5.439563053,114.7603084,92.0005999,155.9044806
0.55,59.15,-15.01338271,-7.966940324,2029.760918,5.442779599,114.7373147,89.58925748,154.8769813
0.55,59.2,-15.02478007,-8.138130551,2032.020566,5.445998598,114.7144242,87.26042544,153.9514344
0.55,59.25,-15.02775901,-8.313086063,2034.279637,5.449220042,114.6916365,85.01038335,153.1467618
0.55,59.3,-15.02005361,-8.489717436,2036.538134,5.452443919,114.6689512,82.83258471,152.4832154
0.55,59.35,-14.99931677,-8.664831976,2038.796058,5.455670221,114.6463676,80.7168103,151.9808426
0.55,59.4,-14.96323196,-8.833961399,2041.053412,5.458898937,114.6238855,78.64817996,151.6571042
0.55,59.45,-14.90971755,-8.991304236,2043.310197,5.462130058,114.6015043,76.60618262,151.5235915
0.55,59.5,-14.83724687,-9.129874304,2045.566415,5.465363573,114.5792236,74.56403359,151.5820529
0.55,59.55,-14.74528599,-9.24194373,2047.822068,5.468599473,114.557043,72.48884661,151.8203509
0.55,59.6,-14.63480455,-9.319820286,2050.077158,5.471837748,114.5349619,70.34323437,152.2094291
0.55,59.65,-14.50874338,-9.356892986,2052.331688,5.475078389,114.51298,68.08887458,152.7026305
0.55,59.7,-14.37224836,-9.348741292,2054.585658,5.478321386,114.4910968,65.69211543,153.2384394
0.55,59.75,-14.23245603,-9.294001986,2056.839071,5.48156673,114.4693119,63.13078942,153.7467661
0.55,59.8,-14.09770439,-9.19470681,2059.091929,5.48481441,114.4476248,60.40034573,154.1575419
0.55,59.85,-13.97625899,-9.055968251,2061.344233,5.488064418,114.4260352,57.51688498,154.4093744
0.55,59.9,-13.87489859,-8.885124058,2063.595985,5.491316745,114.4045425,54.51537409,154.455978
0.55,59.95,-13.79782889,-8.690622979,2065.847188,5.494571381,114.3831463,51.44319998,154.2690719
0.55,60,-13.74627154,-8.480962299,2068.097843,5.497828316,114.3618463,48.35124646,153.8377958
0.55,60.05,-13.71877406,-8.263890851,2070.347952,5.501087543,114.340642,45.28552879,153.1656943
0.55,60.1,-13.71200254,-8.04595107,2072.597517,5.50434905,114.319533,42.28166562,152.2666279
0.55,60.15,-13.72167175,-7.832323497,2074.84654,5.507612831,114.2985188,39.36285422,151.1607315
0.55,60.2,-13.74333951,-7.626884414,2077.095021,5.510878875,114.2775991,36.54064541,149.8710715
0.55,60.25,-13.77294069,-7.432382351,2079.342964,5.514147173,114.2567734,33.81725375,148.4212343
0.55,60.3,-13.80706216,-7.25065928,2081.590371,5.517417717,114.2360414,31.18827047,146.8337992
0.55,60.35,-13.84302307,-7.082868726,2083.837242,5.520690498,114.2154026,28.64507218,145.1295195
0.55,60.4,-13.8788368,-6.929665566,2086.083579,5.523965507,114.1948566,26.17662336,143.3270099
0.55,60.45,-13.91311482,-6.791357978,2088.329385,5.527242735,114.174403,23.7706303,141.442757
0.55,60.5,-13.94494971,-6.668021239,2090.574661,5.530522174,114.1540414,21.41411906,139.4913146
0.55,60.55,-13.97379288,-6.559577706,2092.81941,5.533803814,114.1337714,19.09353242,137.4855833
0.55,60.6,-13.99932317,-6.465849043,2095.063631,5.537087648,114.1135927,16.79441687,135.4371103
0.55,60.65,-14.02128178,-6.386586907,2097.307329,5.540373667,114.0935048,14.50074753,133.3563696
0.55,60.7,-14.03921959,-6.321487759,2099.550503,5.543661861,114.0735073,12.1939758,131.2530003
0.55,60.75,-14.05205851,-6.270196597,2101.793156,5.546952224,114.0535998,9.852124783,129.135992
0.55,60.8,-14.05732292,-6.232303623,2104.03529,5.550244746,114.0337821,7.450038619,127.013815
0.55,60.85,-14.049956,-6.207337063,2106.276906,5.553539419,114.0140536,4.963798867,124.8944956
0.55,60.9,-14.02117676,-6.194754731,2108.518007,5.556836235,113.9944139,2.385252574,122.7856423
0.55,60.95,-13.95947648,-6.19393637,2110.758593,5.560135185,113.9748629,-0.248950098,120.6944289
0.55,61,-13.85744022,-6.204178321,2112.998666,5.563436261,113.9553999,-2.83216844,118.627543
0.55,61.05,-13.722701,-6.224691652,2115.238228,5.566739456,113.9360247,-5.223727307,116.591107
0.55,61.1,-13.57840721,-6.254604516,2117.477282,5.57004476,113.9167369,-7.357564379,114.5905826
0.55,61.15,-13.44665712,-6.292969174,2119.715827,5.573352167,113.8975361,-9.295817517,112.6306653
