"W_50 [mm]","Freq [GHz]","dB(S(1,1)) []","dB(S(2,1)) []","im(Gamma(1:1)) []","re(Gamma(1:1)) []","re(Zo(1:1)) []","ang_deg(Y(1,1)) [deg]","ang_deg(Y(2,1)) [deg]"
0.5,57,-8.06617785402923,-1.94216686971204,1900.27452964957,4.66416177084293,18.0230090127879,8.84416778324441,-88.6695128559841
0.5,57.05,-8.05869878816205,-1.9513092782284,1902.23807287648,4.66773021652904,18.0221802588377,18.8404065737716,-88.6777041986001
0.5,57.1,-8.04576211490287,-1.95941684472604,1904.20139691224,4.67130029074484,18.0213613786645,27.6904631915025,-88.7104387578258
0.5,57.15,-8.02956910167863,-1.96649628423128,1906.16450264818,4.6748719910975,18.0205523414823,35.2687488864781,-88.7647922011497
0.5,57.2,-8.01174631941574,-1.97255510683141,1908.12739097199,4.67844531520773,18.0197531166809,41.6388523704626,-88.8379012277433
0.5,57.25,-7.99349264606693,-1.97760161593978,1910.09006276775,4.68202026070975,18.018963673825,46.9544784196821,-88.927116722608
0.5,57.3,-7.97569319156464,-1.98164490615601,1912.05251891595,4.6855968252511,18.0181839826529,51.3902924047253,-89.0300652501272
0.5,57.35,-7.95900484505728,-1.98469486074168,1914.0147602935,4.68917500649263,18.0174140130754,55.1077258581741,-89.1446613065561
0.5,57.4,-7.94391937781106,-1.98676214873199,1915.97678777375,4.6927548021083,18.0166537351743,58.2432124259961,-89.2690948098436
0.5,57.45,-7.93080954103341,-1.98785822170514,1917.9386022265,4.6963362097852,18.0159031192018,60.9072908186501,-89.4018075538331
0.5,57.5,-7.91996258540334,-1.98799531023111,1919.90020451806,4.69991922722331,18.0151621355791,63.1878327878456,-89.5414660728887
0.5,57.55,-7.91160460068789,-1.98718642002185,1921.86159551123,4.70350385213554,18.0144307548951,65.1542300560626,-89.6869347669101
0.5,57.6,-7.90591820283072,-1.98544532780428,1923.8227760653,4.70709008224753,18.0137089479056,66.8612924647758,-89.8372511187493
0.5,57.65,-7.90305541513555,-1.98278657693671,1925.78374703613,4.71067791529761,18.0129966855318,68.352485418779,-89.9916037315376
0.5,57.7,-7.90314707994966,-1.97922547278872,1927.74450927613,4.71426734903669,18.0122939388597,69.6624861458612,-90.1493133306879
0.5,57.75,-7.90630976368166,-1.97477807790235,1929.70506363426,4.71785838122814,18.0116006791385,70.8191554949144,-90.3098165863869
0.5,57.8,-7.91265084801447,-1.96946120695126,1931.66541095609,4.72145100964774,18.0109168777799,71.8450441738034,-90.4726524858158
0.5,57.85,-7.92227230640378,-1.96329242151236,1933.62555208379,4.72504523208356,18.0102425063568,72.7585407094481,-90.6374509450514
0.5,57.9,-7.93527352629281,-1.95629002466169,1935.58548785617,4.72864104633586,18.0095775366023,73.5747480378118,-90.803923356153
0.5,57.95,-7.95175343830317,-1.94847305540429,1937.54521910867,4.732238450217,18.0089219404085,74.3061557910038,-90.9718547917192
0.5,58,-7.97181214266058,-1.9398612829444,1939.50474667339,4.73583744155139,18.0082756898259,74.9631588459323,-91.1410976243381
0.5,58.05,-7.99555217218196,-1.93047520079995,1941.46407137912,4.73943801817533,18.0076387570616,75.5544598568192,-91.3115663551454
0.5,58.1,-8.02307949452798,-1.9203360207618,1943.42319405135,4.74304017793698,18.0070111144791,76.087383815364,-91.4832334808677
0.5,58.15,-8.05450433003206,-1.90946566669576,1945.38211551226,4.74664391869623,18.0063927345967,76.5681255000928,-91.6561262609027
0.5,58.2,-8.08994184236001,-1.89788676818202,1947.34083658078,4.75024923832465,18.0057835900864,77.0019453812446,-91.8303242748289
0.5,58.25,-8.12951274548587,-1.88562265398481,1949.29935807259,4.75385613470534,18.0051836537737,77.3933256486177,-92.005957686465
0.5,58.3,-8.17334386053327,-1.87269734534248,1951.25768080012,4.75746460573293,18.0045928986354,77.7460951533855,-92.1832061536576
0.5,58.35,-8.22156864889227,-1.85913554906716,1953.21580557259,4.76107464931341,18.0040112977997,78.0635299242855,-92.3622983439613
0.5,58.4,-8.27432774294207,-1.84496265044278,1955.17373319602,4.76468626336409,18.0034388245445,78.3484343318208,-92.5435120359164
0.5,58.45,-8.33176949216311,-1.83020470591092,1957.13146447324,4.76829944581351,18.0028754522967,78.6032067846311,-92.7271748043726
0.5,58.5,-8.39405054003565,-1.81488843553642,1959.08900020391,4.77191419460134,18.0023211546313,78.8298929438277,-92.9136653069274
0.5,58.55,-8.46133644562819,-1.7990412152494,1961.04634118454,4.77553050767831,18.0017759052701,79.03022875673,-93.1034152077395
0.5,58.6,-8.53380236299613,-1.78269106886712,1963.00348820851,4.77914838300613,18.0012396780811,79.2056750848647,-93.2969117955158
0.5,58.65,-8.61163379131009,-1.76586665990997,1964.96044206607,4.78276781855738,18.0007124470774,79.3574452909696,-93.4947013751939
0.5,58.7,-8.69502740893566,-1.74859728324007,1966.91720354437,4.78638881231546,18.0001941864162,79.4865268254468,-93.6973935387754
0.5,58.75,-8.78419200544465,-1.73091285657077,1968.87377342746,4.79001136227448,17.999684870398,79.5936975911749,-93.9056664511063
0.5,58.8,-8.87934952673615,-1.71284391192134,1970.83015249634,4.79363546643923,17.9991844734656,79.6795376491248,-94.1202733226706
0.5,58.85,-8.98073625009177,-1.69442158712497,1972.78634152894,4.79726112282502,17.9986929702029,79.744436641871,-94.3420502855611
0.5,58.9,-9.0886041081147,-1.67567761754162,1974.74234130014,4.80088832945767,17.9982103353346,79.7885971463272,-94.5719259431987
0.5,58.95,-9.20322218316211,-1.65664432818295,1976.69815258181,4.8045170843734,17.9977365437248,79.8120340108343,-94.8109329323046
0.5,59,-9.32487839715444,-1.63735462652667,1978.65377614281,4.80814738561876,17.9972715703762,79.8145695756507,-95.0602219213626
0.5,59.05,-9.45388142564278,-1.617841996386,1980.60921274899,4.81177923125053,17.9968153904293,79.7958245103041,-95.3210785790366
0.5,59.1,-9.59056286987778,-1.5981404933111,1982.56446316323,4.81541261933569,17.9963679791614,79.75520381546,-95.5949441864227
0.5,59.15,-9.735279726535,-1.5782847421375,1984.51952814544,4.81904754795129,17.9959293119858,79.6918773181782,-95.8834407490695
0.5,59.2,-9.88841720194592,-1.55830993746935,1986.47440845259,4.82268401518441,17.9954993644509,79.6047537215174,-96.1884017027353
0.5,59.25,-10.0503919264605,-1.5382518480995,1988.42910483871,4.82632201913207,17.9950781122393,79.4924469311789,-96.5119096207537
0.5,59.3,-10.2216556353089,-1.51814682663453,1990.38361805491,4.82996155790116,17.994665531167,79.3532329443964,-96.8563427484051
0.5,59.35,-10.4026993955252,-1.49803182592122,1992.33794884939,4.83360262960836,17.9942615971824,79.1849950095952,-97.2244327500442
0.5,59.4,-10.5940584747754,-1.47794442427695,1994.29209796746,4.83724523238008,17.9938662863658,78.9851539929618,-97.6193368137754
0.5,59.45,-10.796317968106,-1.45792286202505,1996.24606615158,4.84088936435235,17.993479574928,78.750579839094,-98.0447282966569
0.5,59.5,-11.0101193237551,-1.43800609244735,1998.1998541413,4.8445350236708,17.99310143921,78.4774785698686,-98.5049115278848
0.5,59.55,-11.2361679406111,-1.4182338510107,2000.15346267336,4.84818220849054,17.9927318556819,78.1612472559192,-99.0049683906465
0.5,59.6,-11.4752420494792,-1.39864674762569,2002.10689248165,4.85183091697613,17.992370800942,77.796286561661,-99.5509471322234
0.5,59.65,-11.7282031403789,-1.37928638777603,2004.06014429726,4.85548114730148,17.9920182517162,77.3757564204375,-100.150107893699
0.5,59.7,-11.9960082618004,-1.36019552963492,2006.01321884846,4.85913289764977,17.9916741848572,76.8912545505539,-100.811245295931
0.5,59.75,-12.2797245993586,-1.34141828576802,2007.96611686072,4.86278616621342,17.9913385773434,76.3323889642319,-101.545116978976
0.5,59.8,-12.5805468461783,-1.32300037969585,2009.91883905675,4.86644095119399,17.9910114062783,75.6862029272178,-102.365019690846
0.5,59.85,-12.8998180130572,-1.30498946939547,2011.87138615651,4.87009725080211,17.9906926488898,74.9363917545002,-103.28757360112
0.5,59.9,-13.2390545029276,-1.28743555163101,2013.82375887716,4.87375506325743,17.9903822825293,74.0622218180282,-104.333804535228
0.5,59.95,-13.5999765046005,-1.27039146256186,2015.77595793319,4.87741438678853,17.9900802846707,73.0370175358609,-105.530658446163
0.5,60,-13.9845450625903,-1.25391349092998,2017.72798403632,4.88107521963289,17.9897866329102,71.8260129849061,-106.913151585978
0.5,60.05,-14.3950075753348,-1.23806211950302,2019.67983789558,4.88473756003675,17.9895013049649,70.3832574668937,-108.527467173821
0.5,60.1,-14.8339539906788,-1.22290290708949,2021.6315202173,4.88840140625515,17.9892242786723,68.6470995274089,-110.435474211128
0.5,60.15,-15.3043866352494,-1.20850751537395,2023.58303170513,4.89206675655175,17.9889555319898,66.5335300809878,-112.721387964593
0.5,60.2,-15.8098074578094,-1.19495486906317,2025.53437306005,4.89573360919884,17.9886950429933,63.9263411082167,-115.50161584069
0.5,60.25,-16.354327480185,-1.18233241008145,2027.4855449804,4.89940196247727,17.9884427898772,60.6627613237905,-118.939127440533
0.5,60.3,-16.9428043327814,-1.1707373609353,2029.43654816185,4.90307181467634,17.9881987509532,56.5135022187897,-123.263415541196
0.5,60.35,-17.5810145463968,-1.16027784157048,2031.38738329746,4.90674316409379,17.9879629046495,51.158954711498,-128.794307815208
0.5,60.4,-18.2758667467167,-1.15107358029597,2033.33805107767,4.91041600903567,17.9877352295105,44.1746440927584,-135.956521439236
0.5,60.45,-19.0356572918332,-1.14325581722959,2035.28855219031,4.91409034781637,17.9875157041955,35.0727287273403,-145.238174600602
0.5,60.5,-19.8703539727298,-1.13696582116459,2037.23888732062,4.91776617875847,17.9873043074786,23.509844196202,-156.982952108222
0.5,60.55,-20.7918471626437,-1.13235124983956,2039.18905715128,4.92144350019273,17.9871010182473,9.75982603182978,-170.917390027242
0.5,60.6,-21.8139806504186,-1.12955943659564,2041.13906236238,4.92512231045798,17.9869058155026,-4.86975548188911,174.265657075356
0.5,60.65,-22.9518294330797,-1.12872669373087,2043.08890363147,4.92880260790113,17.9867186783574,-18.5131986404474,160.431420010968
0.5,60.7,-24.218758195703,-1.12996305540526,2045.03858163356,4.93248439087705,17.9865395860366,-29.9088917570663,148.84101441383
0.5,60.75,-25.6173201381852,-1.1333327427329,2046.98809704112,4.93616765774851,17.9863685178759,-38.8247614171005,139.726030625072
0.5,60.8,-27.1141700944358,-1.13883215181443,2048.93745052412,4.93985240688616,17.9862054533212,-45.6220945466541,132.724767479247
0.5,60.85,-28.5808137593021,-1.14636920998644,2050.88664275,4.94353863666844,17.986050371928,-50.7930605345343,127.344778200129
0.5,60.9,-29.705089679027,-1.15574990270578,2052.83567438375,4.94722634548153,17.9859032533609,-54.7632828636061,123.160365227985
0.5,60.95,-30.0420248045411,-1.16667850448969,2054.78454608785,4.95091553171928,17.9857640773924,-57.8544354612964,119.850027710179
0.5,61,-29.4309591899375,-1.17877629987181,2056.73325852231,4.95460619378318,17.9856328239028,-60.2994040708054,117.181298725441
0.5,61.05,-28.2098150435003,-1.19161891224344,2058.6818123447,4.95829833008226,17.9855094728792,-62.2654750860562,114.987495719749
0.5,61.1,-26.7984896735956,-1.20478604077845,2060.63020821013,4.96199193903306,17.9853940044148,-63.8733903439795,113.14854996351
0.5,61.15,-25.424687565255,-1.21791231023341,2062.57844677131,4.9656870190596,17.9852863987085,-65.2108994797544,111.577308797972
0.5,61.2,-24.1670772143315,-1.23072693481113,2064.52652867848,4.96938356859324,17.9851866360642,-66.3420371979265,110.210121520474
0.5,61.25,-23.0384316363216,-1.24307376404587,2066.47445457951,4.97308158607271,17.9850946968899,-67.3135151532828,109.000354631296
0.5,61.3,-22.028621033528,-1.25491000238333,2068.42222511987,4.97678106994401,17.9850105616972,-68.1592427269323,107.913840828879
0.5,61.35,-21.1215197875278,-1.26628810399092,2070.36984094262,4.98048201866036,17.9849342111008,-68.9036181309946,106.925617476614
0.5,61.4,-20.3009772960486,-1.2773285731449,2072.31730268846,4.98418443068216,17.9848656258177,-69.5639771804056,106.017548026659
0.5,61.45,-19.552714316497,-1.28819126428356,2074.26461099573,4.98788830447691,17.9848047866666,-70.1524402342557,105.176560513612
0.5,61.5,-18.864763993846,-1.29905050130661,2076.21176650042,4.99159363851917,17.9847516745674,-70.6773172353575,104.393320735852
0.5,61.55,-18.2274062274746,-1.3100765335544,2078.15876983617,4.99530043129051,17.9847062705403,-71.1441822723118,103.66121416361
0.5,61.6,-17.6329298374639,-1.32142361167249,2080.10562163429,4.99900868127946,17.9846685557056,-71.5566948890407,102.975553526382
0.5,61.65,-17.0753395282748,-1.33322367214817,2082.05232252379,5.00271838698143,17.9846385112826,-71.9172202369068,102.332961055144
0.5,61.7,-16.5500522797161,-1.34558414459957,2083.99887313135,5.00642954689869,17.9846161185893,-72.2272837450253,101.73089490843
0.5,61.75,-16.0536057007055,-1.35858843994565,2085.94527408136,5.0101421595403,17.984601359042,-72.4878875344424,101.167299319146
0.5,61.8,-15.5833934771374,-1.37229796033372,2087.89152599594,5.01385622342205,17.9845942141541,-72.6997128327425,100.640360648532
0.5,61.85,-15.137438135723,-1.38675480780431,2089.8376294949,5.01757173706644,17.9845946655359,-72.8632319578657,100.148350823483
0.5,61.9,-14.7142061240054,-1.40198466449139,2091.78358519583,5.02128869900258,17.9846026948943,-72.9787525330489,99.6895387399135
0.5,61.95,-14.3124651381991,-1.41799954098264,2093.72939371403,5.0250071077662,17.9846182840314,-73.0464143226983,99.2621507494318
0.5,62,-13.9311797002571,-1.43480024233336,2095.67505566258,5.02872696189953,17.9846414148446,-73.0661554737992,98.8643635269238
0.5,62.05,-13.5694386936698,-1.45237849710259,2097.62057165231,5.03244825995132,17.984672069326,-73.0376606527669,98.4943158755279
0.5,62.1,-13.226407828057,-1.47071874987781,2099.56594229185,5.03617100047674,17.9847102295613,-72.9602993093954,98.1501295993913
0.5,62.15,-12.9013003893288,-1.48979964597339,2101.5111681876,5.03989518203734,17.9847558777298,-72.8330585887786,97.8299328575351
0.5,62.2,-12.593360645393,-1.50959524868802,2103.45624994376,5.04362080320102,17.9848089961035,-72.6544724713781,97.5318820713778
0.5,62.25,-12.3018555071529,-1.53007603176125,2105.40118816235,5.04734786254195,17.9848695670467,-72.422546541498,97.2541804024609
0.5,62.3,-12.0260712252405,-1.55120968700569,2107.3459834432,5.05107635864056,17.9849375730153,-72.1346762205072,96.9950921087174
0.5,62.35,-11.7653129005158,-1.57296178224452,2109.29063638398,5.05480629008346,17.9850129965565,-71.7875551566946,96.752952860968
0.5,62.4,-11.5189053596572,-1.5952962992069,2111.23514758019,5.05853765546341,17.9850958203078,-71.3770695438305,96.5261765026903
0.5,62.45,-11.2861945083603,-1.61817607574662,2113.17951762518,5.06227045337926,17.985186026997,-70.8981732778218,96.3132588935733
0.5,62.5,-11.0665486598511,-1.64156317202923,2115.12374711017,5.06600468243591,17.9852835994413,-70.3447379230617,96.1127794894019
0.5,62.55,-10.8593595873094,-1.66541917631029,2117.06783662424,5.06974034124425,17.9853885205469,-69.7093703509742,95.9234012462638
0.5,62.6,-10.6640432033808,-1.68970546260282,2119.01178675434,5.07347742842115,17.9855007733082,-68.9831895755953,95.7438693402948
0.5,62.65,-10.480039858932,-1.71438340983892,2120.95559808534,5.07721594258937,17.9856203408078,-68.1555527408197,95.5730090914896
0.5,62.7,-10.3068142995312,-1.73941458998337,2122.89927119998,5.08095588237754,17.9857472062154,-67.2137184975071,95.4097233854367
0.5,62.75,-10.1438553380493,-1.76476093086389,2124.84280667893,5.0846972464201,17.9858813527877,-66.1424344021289,95.252989806396
0.5,62.8,-9.99067530627091,-1.79038485815907,2126.78620510076,5.08844003335728,17.9860227638676,-64.9234340529993,95.1018576304866
0.5,62.85,-9.84680934456557,-1.81624941995848,2128.72946704197,5.09218424183501,17.9861714228839,-63.5348306507866,94.9554447780305
0.5,62.9,-9.71181458094363,-1.8423183965181,2130.67259307702,5.09592987050491,17.9863273133507,-61.9503988607576,94.8129347873128
0.5,62.95,-9.58526924181248,-1.8685563972279,2132.61558377829,5.09967691802426,17.9864904188667,-60.138750650367,94.6735738458134
0.5,63,-9.46677172791326,-1.89492894634644,2134.55843971613,5.10342538305591,17.986660723115,-58.0624411225173,94.5366678970707
0.55,57,-7.9441642051751,-2.00357454387186,1926.86065601877,4.62844985554325,16.3633964567278,27.5497620375741,-88.6772423274239
0.55,57.05,-7.95311397282244,-2.01009681146643,1928.80091178574,4.63217414539102,16.3635149784709,34.8621887071898,-88.746076376378
0.55,57.1,-7.95378235314999,-2.01571889702746,1930.74101447198,4.63589999530353,16.3636415246734,41.064547946608,-88.8212195815462
0.55,57.15,-7.94829855897281,-2.02044225922531,1932.68096477768,4.63962740369375,16.3637760753093,46.2898314161424,-88.9045927492837
0.55,57.2,-7.93854476605709,-2.02426914573907,1934.62076340029,4.6433563689824,16.3639186104665,50.6903053473281,-88.9970849196696
0.55,57.25,-7.92611015794093,-2.02720260014478,1936.56041103455,4.64708688959792,16.3640691103466,54.4087414382261,-89.0988642664731
0.55,57.3,-7.91229591671112,-2.02924646867278,1938.49990837246,4.65081896397636,16.3642275552638,57.5677925671998,-89.2096271099265
0.55,57.35,-7.89814597380991,-2.03040540682427,1940.43925610333,4.65455259056133,16.3643939256441,60.2684748411541,-89.3287847576367
0.55,57.4,-7.88448736263057,-2.03068488583736,1942.37845491377,4.65828776780394,16.3645682020251,62.5923514961944,-89.4555969579127
0.55,57.45,-7.87197105255953,-2.03009119899211,1944.31750548774,4.66202449416276,16.3647503650546,64.6047675113066,-89.5892633306414
0.55,57.5,-7.86110883044451,-2.02863146774366,1946.25640850652,4.66576276810368,16.3649403954902,66.35801761099,-89.7289835367942
0.55,57.55,-7.85230458315078,-2.02631364767225,1948.19516464873,4.66950258809995,16.3651382741987,67.8940651588842,-89.8739951217598
0.55,57.6,-7.8458798275575,-2.02314653423758,1950.13377459038,4.67324395263205,16.3653439821551,69.2467442051113,-90.0235959273896
0.55,57.65,-7.84209403347489,-2.01913976832451,1952.07223900485,4.67698686018762,16.3655575004423,70.4434944349738,-90.1771561493425
0.55,57.7,-7.84116053813898,-2.0143038415657,1954.01055856289,4.68073130926146,16.3657788102499,71.506711016621,-90.334123656265
0.55,57.75,-7.84325887511002,-2.00865010142564,1955.94873393269,4.68447729835541,16.3660078928738,72.4547901753395,-90.4940250830724
0.55,57.8,-7.8485442609336,-2.00219075602902,1957.88676577983,4.68822482597832,16.3662447297155,73.3029392438461,-90.6564644071725
0.55,57.85,-7.85715486737575,-1.99493887871491,1959.82465476734,4.69197389064597,16.3664893022815,74.0638060628549,-90.8211201476699
0.55,57.9,-7.86921738896759,-1.98690841229651,1961.76240155567,4.69572449088104,16.3667415921824,74.7479701990057,-90.9877419332872
0.55,57.95,-7.88485130970088,-1.97811417300445,1963.70000680274,4.69947662521302,16.3670015811322,75.3643283527921,-91.156146916244
0.55,58,-7.90417218387089,-1.96857185408983,1965.63747116394,4.70323029217816,16.367269250948,75.9203984731134,-91.3262163296674
0.55,58.05,-7.92729417438343,-1.95829802906163,1967.57479529214,4.70698549031942,16.3675445835489,76.4225611156789,-91.4978923681939
0.55,58.1,-7.95433203542731,-1.94731015453101,1969.51197983769,4.71074221818642,16.3678275609557,76.8762520801537,-91.6711754960006
0.55,58.15,-7.98540268273659,-1.93562657263433,1971.44902544847,4.71450047433535,16.36811816529,77.2861169849673,-91.8461222400798
0.55,58.2,-8.02062646123581,-1.92326651300472,1973.38593276985,4.71826025732894,16.3684163787736,77.6561359078991,-92.0228434998737
0.55,58.25,-8.06012819448704,-1.91025009426237,1975.32270244475,4.72202156573639,16.3687221837279,77.9897243189052,-92.201503391101
0.55,58.3,-8.10403808122874,-1.89659832499297,1977.25933511363,4.72578439813333,16.3690355625734,78.2898150970113,-92.3823186375524
0.55,58.35,-8.15249248996965,-1.88233310418555,1979.19583141449,4.72954875310174,16.3693564978286,78.5589253350165,-92.5655585270489
0.55,58.4,-8.20563469195156,-1.86747722110256,1981.13219198291,4.73331462922992,16.36968497211,78.7992108052723,-92.7515454549526
