"W_50 [mm]","Freq [GHz]","dB(S(1,1)) []","dB(S(2,1)) []","im(Gamma(1)) []","re(Gamma(1)) []","re(Zo(1)) []","ang_deg(S(1,1)) [deg]","ang_deg(S(2,1)) [deg]"
0.5,57,-25.8361635431618,-7.32422423606814,1945.75325486783,5.36390241600842,261.47730372408,143.474463890792,-140.517821169485
0.5,57.05,-26.5484951858776,-7.29580318664693,1948.08562367256,5.36678505533786,261.393834801562,139.31735131176,-142.57128474318
0.5,57.1,-27.3260210601737,-7.27295025682517,1950.41724503547,5.36967105212852,261.310666689772,134.621751926564,-144.632486395258
0.5,57.15,-28.1730580782952,-7.2558775369401,1952.74812163453,5.37256039024774,261.227797857257,129.220251091502,-146.698319035032
0.5,57.2,-29.089613350043,-7.24476549329947,1955.07825613407,5.37545305366938,261.145226782827,122.880225061568,-148.765382779722
0.5,57.25,-30.0652974304176,-7.23975599053123,1957.4076511849,5.37834902647289,261.062951955464,115.28321898938,-150.829985360623
0.5,57.3,-31.0673768952512,-7.24094466536561,1959.73630942438,5.38124829284243,260.980971874243,106.017307877664,-152.888147540998
0.5,57.35,-32.0207355628246,-7.24837265216135,1962.06423347651,5.38415083706596,260.899285048245,94.630185691804,-154.935614595694
0.5,57.4,-32.7864710715836,-7.26201767559818,1964.39142595205,5.38705664353441,260.817889996472,80.8438483759638,-156.967875088492
0.5,57.45,-33.1737694541447,-7.28178454896975,1966.71788944857,5.38996569674077,260.736785247768,64.9933370558809,-158.980188406949
0.5,57.5,-33.034011610626,-7.30749515129724,1969.04362655056,5.39287798127925,260.655969340736,48.3516897994371,-160.967622775597
0.5,57.55,-32.3819251450121,-7.33887800804889,1971.3686398295,5.39579348184445,260.575440823653,32.6360657335254,-162.925105758129
0.5,57.6,-31.3823784121855,-7.37555767466428,1973.69293184396,5.39871218323052,260.495198254397,18.982124006293,-164.847489556306
0.5,57.65,-30.2228607596348,-7.41704422609991,1976.01650513969,5.40163407033031,260.415240200363,7.59866031139835,-166.729633676944
0.5,57.7,-29.032714323104,-7.46272329582957,1978.33936224968,5.40455912813458,260.335565238384,-1.84335436332794,-168.566507701661
0.5,57.75,-27.879988707663,-7.51184728902905,1980.66150569427,5.40748734173119,260.256171954657,-9.7994883710593,-170.353316856089
0.5,57.8,-26.7939763231368,-7.56352861772981,1982.98293798123,5.41041869630427,260.177058944662,-16.6694429893068,-172.085652696631
0.5,57.85,-25.7840649499666,-7.61673606342061,1985.30366160581,5.41335317713345,260.098224813089,-22.7582756622243,-173.759670335166
0.5,57.9,-24.8506033107536,-7.67029564536139,1987.62367905088,5.4162907695931,260.019668173759,-28.2877654122005,-175.372292000149
0.5,57.95,-23.9903567241446,-7.72289762362275,1989.94299278695,5.4192314591515,259.941387649554,-33.4170065722485,-176.921434183206
0.5,58,-23.1990625444036,-7.77311143556887,1992.2616052723,5.42217523137013,259.863381872339,-38.2601295544424,-178.406251997238
0.5,58.05,-22.4725541043569,-7.81941037119585,1994.57951895302,5.42512207190286,259.78564948289,-42.8992267701392,-179.827389669755
0.5,58.1,-21.8071999813079,-7.86020753717844,1996.89673626313,5.42807196649524,259.708189130822,-47.3932627928918,178.812779443115
0.5,58.15,-21.2000201941885,-7.89390404142037,1999.21325962462,5.43102490098372,259.630999474516,-51.7841144009019,177.509945707928
0.5,58.2,-20.6486518912585,-7.9189492775274,2001.52909144755,5.43398086129495,259.554079181049,-56.100680661583,176.257716289864
0.5,58.25,-20.1512471902085,-7.93391169932229,2003.84423413012,5.43693983344501,259.477426926125,-60.361735977063,175.047558565571
0.5,58.3,-19.7063438228914,-7.93755665889121,2006.15869005876,5.43990180353872,259.401041394,-64.5779857555897,173.868862915222
0.5,58.35,-19.312729993649,-7.92892598676589,2008.47246160817,5.44286675776893,259.32492127742,-68.7536320512836,172.70914767491
0.5,58.4,-18.9693162329038,-7.90741239700179,2010.78555114144,5.44583468241578,259.249065277547,-72.8876493903539,171.554417005587
0.5,58.45,-18.6750230497504,-7.87282094138321,2013.09796101011,5.44880556384601,259.173472103892,-76.9748939069006,170.389665405348
0.5,58.5,-18.4286908790285,-7.82540999444469,2015.40969355423,5.45177938851229,259.098140474253,-81.0071119123331,169.199502896536
0.5,58.55,-18.229016744287,-7.76590580221204,2017.72075110244,5.45475614295251,259.023069114642,-84.9738719734249,167.968856198628
0.5,58.6,-18.0745196746781,-7.69548734475389,2020.03113597204,5.4577358137891,258.948256759222,-88.8634154160633,166.683687533304
0.5,58.65,-17.9635342322475,-7.61574170129034,2022.3408504691,5.46071838772837,258.873702150243,-92.6634031167547,165.331667408963
0.5,58.7,-17.8942288509995,-7.52859361029787,2024.64989688845,5.46370385155982,258.799404037976,-96.3615305214072,163.902742238456
0.5,58.75,-17.8646434825379,-7.43621580591035,2026.95827751386,5.46669219215552,258.725361180649,-99.945986085411,162.389551028697
0.5,58.8,-17.8727396203253,-7.34092847942629,2029.26599461801,5.46968339646939,258.651572344385,-103.405737765932,160.78766467721
0.5,58.85,-17.9164552677256,-7.24509665363578,2031.57305046261,5.47267745153661,258.578036303138,-106.73064432324,159.095642604454
0.5,58.9,-17.9937577255274,-7.15103347378372,2033.87944729848,5.47567434447298,258.504751838631,-109.911399804772,157.314920687622
0.5,58.95,-18.1026879251915,-7.06091574613968,2036.18518736558,5.47867406247422,258.431717740296,-112.939328471675,155.449558987184
0.5,59,-18.2413910624589,-6.97671592310427,2038.49027289311,5.48167659281542,258.358932805211,-115.806052676438,153.505886319438
0.5,59.05,-18.4081291395563,-6.90015254609546,2040.79470609958,5.48468192285036,258.286395838041,-118.503058196313,151.492081450114
0.5,59.1,-18.601271426336,-6.8326592150978,2043.09848919285,5.48769004001091,258.214105650977,-121.021181695777,149.417728620122
0.5,59.15,-18.8192586335807,-6.77537063102452,2045.4016243702,5.49070093180642,258.14206106368,-123.350045520441,147.293379735314
0.5,59.2,-19.060535712042,-6.72912321567222,2047.70411381845,5.49371458582312,258.070260903219,-125.477468718121,145.130148334698
0.5,59.25,-19.3234467572063,-6.69446723506086,2050.00595971394,5.49673098972351,257.998704004013,-127.388893506341,142.939352638224
0.5,59.3,-19.6060838521801,-6.67168716897466,2052.30716422267,5.49975013124576,257.927389207776,-129.066887663941,140.73221748249
0.5,59.35,-19.9060805683117,-6.66082719524123,2054.60772950032,5.50277199820314,257.856315363457,-130.490820704303,138.519638374971
0.5,59.4,-20.2203417449325,-6.66171900123494,2056.90765769233,5.50579657848341,257.785481327188,-131.636870556007,136.312005556691
0.5,59.45,-20.544706769182,-6.67400961431981,2059.20695093398,5.50882386004826,257.714885962221,-132.478600675865,134.119081970549
0.5,59.5,-20.8735582317776,-6.69718748786811,2061.50561135041,5.51185383093275,257.644528138881,-132.988448456688,131.949926347761
0.5,59.55,-21.1994174584737,-6.73060563652548,2063.80364105674,5.5148864792447,257.574406734504,-133.140554511602,129.812851110983
0.5,59.6,-21.5126183203359,-6.77350114632225,2066.10104215806,5.51792179316416,257.504520633386,-132.915364081181,127.7154042632
0.5,59.65,-21.801218945219,-6.82501086967748,2068.39781674959,5.52095976094287,257.434868726731,-132.306208089879,125.664364690762
0.5,59.7,-22.0513753146768,-6.88418354170448,2070.69396691663,5.52400037090365,257.365449912592,-131.327442089062,123.665741184231
0.5,59.75,-22.2484050167641,-6.94998891949225,2072.9894947347,5.52704361143992,257.296263095824,-130.02259589909,121.724766841822
0.5,59.8,-22.3786310467449,-7.02132484998767,2075.28440226959,5.53008947101509,257.227307188028,-128.469643912309,119.845882288101
0.5,59.85,-22.4317690858003,-7.09702341254877,2077.57869157738,5.53313793816211,257.158581107501,-126.779842031566,118.032703280849
0.5,59.9,-22.4032104484551,-7.17585745097489,2079.87236470455,5.53618900148284,257.090083779183,-125.08780236192,116.287970782666
0.5,59.95,-22.2953437675477,-7.25654889012231,2082.165423688,5.53924264964759,257.021814134607,-123.533912764453,114.613484425061
0.5,60,-22.1173210080327,-7.33778019883657,2084.45787055512,5.5422988713946,256.953771111849,-122.244143146837,113.010023426531
0.5,60.05,-21.8833348849773,-7.4182101835528,2086.74970732387,5.54535765552947,256.885953655478,-121.313826704335,111.477262284308
0.5,60.1,-21.6100942745097,-7.49649494774852,2089.0409360028,5.54841899092472,256.818360716505,-120.799874189032,110.013691653442
0.5,60.15,-21.3143607088177,-7.57131431786969,2091.33155859115,5.5514828665192,256.750991252335,-120.721800100781,108.61655732629
0.5,60.2,-21.0111400004867,-7.64140333092482,2093.62157707885,5.55454927131767,256.683844226718,-121.068779690111,107.281831589523
0.5,60.25,-20.7127044852259,-7.70558755792342,2095.91099344665,5.55761819439024,256.616918609702,-121.809089639583,106.004230901766
0.5,60.3,-20.4283180032395,-7.76282020237224,2098.19980966611,5.56068962487191,256.550213377584,-122.899147424749,104.777291364396
0.5,60.35,-20.1644210953315,-7.81221820491768,2100.48802769968,5.56376355196207,256.483727512863,-124.290733693147,103.5935087131
0.5,60.4,-19.9250501997593,-7.85309416025428,2102.77564950077,5.566839964924,256.417460004192,-125.936059434537,102.444542855777
0.5,60.45,-19.7123314059518,-7.88498084451292,2105.0626770138,5.56991885308444,256.351409846335,-127.790922733297,101.321479158076
0.5,60.5,-19.5269561738354,-7.90764562917869,2107.34911217422,5.57300020583305,256.285576040116,-129.816403277079,100.215130993506
0.5,60.55,-19.3685950580861,-7.92109299195314,2109.6349569086,5.57608401262198,256.21995759238,-131.979540744505,99.1163619666685
0.5,60.6,-19.2362351722099,-7.92555459128362,2111.92021313469,5.57917026296538,256.154553515939,-134.25336135676,98.0164029342585
0.5,60.65,-19.1284429725997,-7.92146773476109,2114.20488276143,5.58225894643897,256.089362829535,-136.616521233101,96.9071391962471
0.5,60.7,-19.0435611907701,-7.90944429969361,2116.48896768906,5.58535005267955,256.024384557792,-139.052752125963,95.7813469631683
0.5,60.75,-18.9798511764509,-7.89023304896156,2118.77246980911,5.58844357138455,255.959617731174,-141.550231159386,94.6328646373396
0.5,60.8,-18.935591873937,-7.86467870380781,2121.0553910045,5.59153949231159,255.895061385938,-144.100949993822,93.456692281158
0.5,60.85,-18.9091454712652,-7.83368107148574,2123.33773314959,5.59463780527802,255.830714564094,-146.700126816694,92.2490204440355
0.5,60.9,-18.8989981583824,-7.7981570598417,2125.61949811017,5.59773850016051,255.766576313362,-149.34568311884,91.0071960538958
0.5,60.95,-18.9037827810677,-7.75900768439025,2127.90068774362,5.60084156689456,255.702645687127,-152.037793389855,89.7296375767654
0.5,61,-18.9222886633512,-7.71709134532249,2130.18130389884,5.60394699547411,255.638921744399,-154.778507362913,88.4157138641499
0.5,61.05,-18.9534625670914,-7.67320386134749,2132.46134841639,5.60705477595108,255.575403549772,-157.571439558206,87.0656012504441
0.5,61.1,-18.9964036793937,-7.62806509102565,2134.74082312851,5.61016489843497,255.512090173381,-160.421518371837,85.6801320288133
0.5,61.15,-19.0503546523194,-7.58231149848243,2137.01972985913,5.61327735309241,255.448980690861,-163.334785945892,84.2606450304107
0.5,61.2,-19.1146900363386,-7.53649373517002,2139.29807042401,5.61639213014676,255.386074183309,-166.318239913506,82.8088462291591
0.5,61.25,-19.1889029162678,-7.49107818962659,2141.57584663069,5.61950921987769,255.323369737241,-169.379708414554,81.3266845396267
0.5,61.3,-19.2725901441666,-7.44645146480245,2143.8530602786,5.62262861262077,255.260866444552,-172.527750238199,79.8162455611374
0.5,61.35,-19.3654362402801,-7.40292683572557,2146.12971315908,5.62575029876704,255.198563402479,-175.771572381064,78.2796640945227
0.5,61.4,-19.4671957789822,-7.3607518813684,2148.40580705546,5.62887426876264,255.136459713561,-179.12095759328,76.7190548533462
0.5,61.45,-19.5776738772272,-7.32011664377294,2150.68134374306,5.63200051310839,255.074554485597,177.41380545913,75.1364598689471
0.5,61.5,-19.6967042516419,-7.2811618239003,2152.95632498927,5.63512902235939,255.012846831613,173.82199700779,73.5338105682073
0.5,61.55,-19.8241242096553,-7.24398666449544,2155.2307525536,5.63825978712464,254.95133586982,170.092554090486,71.9129022910043
0.5,61.6,-19.9597459032485,-7.20865628911489,2157.50462818769,5.64139279806663,254.890020723576,166.214180513258,70.2753790206349
0.5,61.65,-20.103323226875,-7.17520836155737,2159.7779536354,5.64452804590098,254.828900521353,162.175488951525,68.6227262477118
0.5,61.7,-20.2545139240066,-7.14365900237855,2162.05073063282,5.64766552139602,254.767974396693,157.965186608673,66.9562701150273
0.5,61.75,-20.4128368344765,-7.11400795167727,2164.32296090836,5.65080521537244,254.707241488177,153.572317213207,65.2771812526532
0.5,61.8,-20.5776248341953,-7.08624300329935,2166.59464618272,5.6539471187029,254.646700939386,148.986573198316,63.5864819784938
0.5,61.85,-20.7479749596174,-7.0603437584588,2168.86578816902,5.65709122231167,254.586351898864,144.198692109584,61.8850557901892
0.5,61.9,-20.9226985240899,-7.03628475968529,2171.13638857279,5.66023751717423,254.526193520086,139.200949753604,60.173658298994
0.5,61.95,-21.100275721486,-7.01403807167325,2173.40644909202,5.66338599431692,254.466224961417,133.987758090777,58.4529289502754
0.5,62,-21.2788211662882,-6.99357537623375,2175.67597141721,5.6665366448166,254.406445386081,128.556366826338,56.7234030378135
0.5,62.05,-21.456068753832,-6.97486964585499,2177.94495723143,5.66968945980025,254.346853962125,122.907652440398,54.9855236519131
0.5,62.1,-21.6293856148589,-6.95789645565789,2180.21340821034,5.67284443044462,254.287449862381,117.046955948302,53.2396533073889
0.5,62.15,-21.7958250066006,-6.94263498773371,2182.48132602224,5.6760015479759,254.22823226444,110.984901532867,51.4860850804389
0.5,62.2,-21.9522258033305,-6.92906877563302,2184.74871232811,5.67916080366933,254.169200350607,104.738095857856,49.7250531468751
0.5,62.25,-22.0953610473358,-6.91718623058653,2187.01556878165,5.6823221888489,254.110353307877,98.3295800090614,47.956742661638
0.5,62.3,-22.222129664392,-6.90698098516162,2189.28189702934,5.68548569488695,254.051690327895,91.7888942730299,46.1812989540855
0.5,62.35,-22.3297749933917,-6.89845208465994,2191.54769871045,5.68865131320385,253.993210606927,85.1516333604477,44.3988360378646
0.5,62.4,-22.4161037354281,-6.891604051727,2193.81297545712,5.6918190352677,253.934913345823,78.4584249211757,42.6094444505757
0.5,62.45,-22.4796728124066,-6.88644684540014,2196.07772889436,5.69498885259391,253.87679774999,71.7533546760987,40.8131984487135
0.5,62.5,-22.519912668288,-6.88299573215994,2198.34196064012,5.69816075674495,253.818863029354,65.0819689993385,39.0101625890768
0.5,62.55,-22.5371649629061,-6.88127108344015,2200.60567230531,5.70133473932994,253.761108398331,58.4890795581238,37.2003977302033
0.5,62.6,-22.5326284681874,-6.88129811145021,2202.86886549386,5.7045107920044,253.703533075795,52.0166428567484,35.3839664872933
0.5,62.65,-22.5082246075307,-6.88310655302229,2205.13154180274,5.70768890646986,253.646136285045,45.7019723148167,33.5609381723917
0.5,62.7,-22.4664080399496,-6.88673030946202,2207.39370282203,5.71086907447357,253.588917253777,39.5764670633998,31.7313932487829
0.5,62.75,-22.4099542017135,-6.89220704900818,2209.65535013491,5.71405128780818,253.53187521405,33.6649357033613,29.8954273251402
0.5,62.8,-22.3417540909771,-6.89957777744619,2211.91648531774,5.71723553831138,253.475009402255,27.9854883284921,28.05315471129
0.5,62.85,-22.2646389506992,-6.90888638162807,2214.17710994009,5.72042181786567,253.418319059087,22.5498928371068,26.2047115537282
0.5,62.9,-22.1812473424316,-6.92017915009003,2216.43722556476,5.72361011839795,253.361803429513,17.3642534721835,24.3502585655418
0.5,62.95,-22.0939375780005,-6.93350427458871,2218.69683374786,5.72680043187927,253.305461762744,12.4298674852499,22.4899833622015
0.5,63,-22.0047414960624,-6.94891133616782,2220.95593603878,5.72999275032451,253.249293312203,7.7441380791732,20.624102412012
0.55,57,-15.35485098881,-6.90670078533013,1951.64379315197,5.29724669716783,297.768954866909,-2.01254997981214,-123.769446135122
0.55,57.05,-15.2374227287904,-6.98046732832733,1953.94334942648,5.30034429848028,297.72401747096,-5.14077470055434,-124.68954178042
0.55,57.1,-15.1277544679123,-7.05529953894564,1956.24223024989,5.3034447212392,297.679396007198,-8.43545810528961,-125.554537735721
0.55,57.15,-15.0295245864598,-7.12938913472018,1958.54043802662,5.30654795240874,297.635089002396,-11.8918652139302,-126.355799859765
0.55,57.2,-14.9464551070997,-7.20040693289582,1960.8379751491,5.3096539790366,297.591094993316,-15.4997830678562,-127.086978198537
0.55,57.25,-14.8820987812625,-7.26556652894,1963.13484399786,5.31276278825343,297.547412526658,-19.2431562415339,-127.745441384473
0.55,57.3,-14.8395980395808,-7.32178756808229,1965.43104694159,5.31587436727207,297.504040159001,-23.1001587537694,-128.333675197839
0.55,57.35,-14.8214406570459,-7.36596400362777,1967.72658633722,5.31898870338694,297.460976456752,-27.0437910520433,-128.860303326968
0.55,57.4,-14.8292435888148,-7.3953118084877,1970.02146453,5.32210578397334,297.418219996093,-31.0430161708499,-129.340349483935
0.55,57.45,-14.8635969069173,-7.40773544417213,1972.31568385359,5.3252255964868,297.375769362933,-35.0643525722299,-129.794460375781
0.55,57.5,-14.9239924684756,-7.40212921109376,1974.60924663011,5.32834812846244,297.333623152859,-39.0737479712995,-130.247062807828
0.55,57.55,-15.0088479215953,-7.37853449410165,1976.90215517023,5.33147336751431,297.291779971094,-43.0384984288648,-130.723759900837
0.55,57.6,-15.1156196808211,-7.33811094767288,1979.19441177324,5.33460130133474,297.250238432452,-46.9289711785629,-131.248533800101
0.55,57.65,-15.2409836291523,-7.28293472713953,1981.48601872712,5.33773191769376,297.2089971613,-50.7199398523737,-131.841381330098
0.55,57.7,-15.3810536487388,-7.21568480322687,1983.77697830863,5.34086520443839,297.168054791521,-54.3914286393434,-132.516836623951
0.55,57.75,-15.5316071861233,-7.13929904769046,1986.06729278336,5.3440011494921,297.127409966476,-57.9290582003972,-133.283527381621
0.55,57.8,-15.6882926571076,-7.05667164607807,1988.3569644058,5.34713974085414,297.087061338977,-61.3239639920418,-134.144618982871
0.55,57.85,-15.8468026142577,-6.97043421803529,1990.64599541944,5.35028096659895,297.047007571256,-64.5724021316358,-135.098831019643
0.55,57.9,-16.003006077189,-6.88283124626221,1992.93438805681,5.35342481487551,297.007247334938,-67.6751681337081,-136.141685092391
0.55,57.95,-16.1530410336032,-6.7956774825088,1995.22214453957,5.35657127390657,296.967779311024,-70.6369385485195,-137.266716066502
0.55,58,-16.293372914795,-6.71037427264212,1997.50926707857,5.35972033198427,296.928602189867,-73.4656169301339,-138.46648811036
0.55,58.05,-16.4208269347622,-6.62796081700898,1999.79575787386,5.36287197748976,296.889714671161,-76.1717343160085,-139.733354921569
0.55,58.1,-16.53260222745,-6.54918088186122,2002.08161911497,5.36602619885942,296.851115463929,-78.7679274073469,-141.059970123613
0.55,58.15,-16.6262745357871,-6.47455165413319,2004.36685298067,5.36918298460052,296.812803286515,-81.2684979826495,-142.439588202453
0.55,58.2,-16.6997925004336,-6.40442705710362,2006.65146163927,5.3723423233009,296.774776866588,-83.6890450864509,-143.866207049255
0.55,58.25,-16.7514708591196,-6.33905203440599,2008.9354472486,5.37550420361553,296.737034941139,-86.0461560235124,-145.334600090007
0.55,58.3,-16.7799823894121,-6.27860700260878,2011.21881195606,5.37866861426917,296.69957625649,-88.3571413975743,-146.840276815846
0.55,58.35,-16.7843493416479,-6.22324316611816,2013.50155789875,5.38183554405603,296.662399568313,-90.6398015958902,-148.379400028515
0.55,58.4,-16.7639344409415,-6.17311005584604,2015.78368720346,5.38500498183916,296.625503641644,-92.9122157192538,-149.948678644054
