"W_50 [mm]","Freq [GHz]","dB(S(1,1)) []","dB(S(2,1)) []","im(Gamma(1)) []","re(Gamma(1)) []","re(Zo(1)) []","ang_deg(S(1,1)) [deg]","ang_deg(S(2,1)) [deg]"
0.5,57,-25.0883600016106,-4.22529838755484,2109.5749483271,4.9539615002527,70.2107946309892,-176.309406384402,108.961542788346
0.5,57.05,-24.8827740910234,-4.28178799559045,2111.71288130666,4.95773185643151,70.2073620369833,175.123234303754,107.757436258907
0.5,57.1,-24.7028116249099,-4.3255029043546,2113.85054544531,4.96150270365655,70.2033298150697,166.544097837031,106.609059221194
0.5,57.15,-24.5523277129729,-4.35594201908988,2115.98794151757,4.9652740402535,70.1993670959686,157.972495385883,105.501303923041
0.5,57.2,-24.4343160577813,-4.37287032489827,2118.12507029489,4.96904586455601,70.1954454936,149.429744469945,104.419078799675
0.5,57.25,-24.3508122550884,-4.37632956015453,2120.26193254567,4.97281817490566,70.1915520947719,140.938673831801,103.347399025138
0.5,57.3,-24.3028453050363,-4.36665257103178,2122.39852903526,4.97659096965185,70.1876822752762,132.522952138474,102.271543643836
0.5,57.35,-24.2904378543052,-4.34447675896034,2124.53486052602,4.98036424715184,70.1838340138313,124.206361036381,101.177290564194
0.5,57.4,-24.3126475008166,-4.31075137426201,2126.67092777726,4.98413800577062,70.1800062799106,116.012136697589,100.051230373885
0.5,57.45,-24.3676337992728,-4.26673322230228,2128.80673154534,4.98791224388089,70.1761984826838,107.962477361816,98.8811472024591
0.5,57.5,-24.4527303411278,-4.21396587211372,2130.9422725836,4.99168695986304,70.1724102501115,100.078262261964,97.6564407055608
0.5,57.55,-24.5644997598806,-4.15423887060857,2133.07755164244,4.99546215210503,70.1686413290048,92.378959262317,96.3685496654076
0.5,57.6,-24.6987523169567,-4.08952579480339,2135.21256946933,4.99923781900244,70.1648915353963,84.8826249747799,95.0113274982993
0.5,57.65,-24.8505160834889,-4.02190301441035,2137.34732680878,5.00301395895832,70.1611607280091,77.6058308453683,93.5813161813323
0.5,57.7,-25.0139590874459,-3.95345432220884,2139.48182440239,5.00679057038323,70.1574487931951,70.5632899554049,92.0778701432721
0.5,57.75,-25.1822820474071,-3.88616945298406,2141.61606298886,5.01056765169515,70.1537556359443,63.7669251594077,90.5030962015191
0.5,57.8,-25.3476251465195,-3.82184624007014,2143.75004330401,5.01434520131943,70.1500811742739,57.2241358433246,88.8615978982987
0.5,57.85,-25.5010619216294,-3.76200620954654,2145.88376608078,5.01812321768876,70.1464253355801,50.9351328908539,87.160038242567
0.5,57.9,-25.6327795651668,-3.70783162453161,2148.01723204924,5.02190169924314,70.1427880541642,44.8894745898692,85.4065576593716
0.5,57.95,-25.7325493937708,-3.66012871236188,2150.15044193665,5.02568064442979,70.1391692694759,39.0623766271394,83.6100969749671
0.5,58,-25.7905472813752,-3.6193179353175,2152.28339646739,5.02946005170317,70.1355689247956,33.411907656146,81.7796718835328
0.5,58.05,-25.7984722385139,-3.58544932617736,2154.41609636306,5.03323991952487,70.1319869661805,27.8785576146911,79.9236187948208
0.5,58.1,-25.7507502777657,-3.55824249343728,2156.54854234245,5.0370202463636,70.1284233415612,22.3884781781696,78.0487736587834
0.5,58.15,-25.645477389275,-3.53716609549913,2158.68073512156,5.04080103069517,70.1248779999089,16.8606739776649,76.1594499334493
0.5,58.2,-25.4847566469259,-3.52162679449916,2160.81267541362,5.04458227100241,70.1213508904229,11.2168241425008,74.2560146538477
0.5,58.25,-25.274268491891,-3.51148609311448,2162.94436392909,5.04836396577512,70.1178419617021,5.39109323961106,72.33335823707
0.5,58.3,-25.0221994498273,-3.50826754504872,2165.0758013757,5.05214611351008,70.1143511608796,-0.662855897829149,70.3829181914388
0.5,58.35,-24.737877078025,-3.51619099545887,2167.20698845843,5.05592871271094,70.1108784327143,-6.96926547825674,68.4097385606421
0.5,58.4,-24.4305005838853,-3.53801883279977,2169.33792587954,5.05971176188824,70.1074237186464,-13.5319959113927,66.457541377423
0.5,58.45,-24.1082327801906,-3.5679374120559,2171.46861433861,5.0634952595593,70.1039869558401,-20.3391496448525,64.5708234108356
0.5,58.5,-23.7777360528593,-3.59816732678378,2173.5990545325,5.06727920424813,70.1005680762578,-27.3688165705311,62.7362352741115
0.5,58.55,-23.4440918352633,-3.62696072873977,2175.7292471554,5.07106359448494,70.0971670058335,-34.5944966383306,60.9188890771254
0.5,58.6,-23.1109776245187,-3.65581726840013,2177.85919289884,5.07484842880136,70.0937836638434,-41.9893909639336,59.0991443931699
0.5,58.65,-22.7809742754004,-3.6864066538233,2179.98889245174,5.07863370573004,70.0904179626124,-49.5293233130544,57.2700010011747
0.5,58.7,-22.4559076552517,-3.71999362355824,2182.11834650024,5.08241942389733,70.0870698077488,-57.1944124684561,55.4292232918084
0.5,58.75,-22.1371667832974,-3.75761688965054,2184.247555728,5.08620558177738,70.0837390991759,-64.969769987874,53.5759672722615
0.5,58.8,-21.825971694637,-3.80028578074654,2186.37652081601,5.08999217795778,70.0804257333463,-72.8455158000327,51.7099700771925
0.5,58.85,-21.5235845719629,-3.84909644083563,2188.50524244267,5.09377921101127,70.0771296072209,-80.816354981557,49.8316468455007
0.5,58.9,-21.2314683432749,-3.90528947757605,2190.63372128378,5.09756667951525,70.0738506249526,-88.8808901261208,47.9424881170597
0.5,58.95,-20.9514007420243,-3.97027001332197,2192.76195801257,5.10135458205331,70.0705887089085,-97.0407801041195,46.0455864414598
0.5,59,-20.6855514503639,-4.04559793056582,2194.88995329971,5.10514291721532,70.0673438180779,-105.299807875512,44.1462557681746
0.5,59.05,-20.4365274118395,-4.13294631158646,2197.01770781333,5.1089316835975,70.0641159798011,-113.662889573149,42.2527361473305
0.5,59.1,-20.2073880786636,-4.23401941535415,2199.14522221899,5.11272087980239,70.0609053462837,-122.135043281776,40.376964564691
0.5,59.15,-20.001629207205,-4.35041707184533,2201.27249717976,5.11651050443878,70.0577122951643,-130.720336839469,38.5353564342921
0.5,59.2,-19.823131607798,-4.48343052299403,2203.39953335618,5.12030055612173,70.0545375846399,-139.420847267221,36.7494823711159
0.5,59.25,-19.6760707197674,-4.63375745565963,2205.5263314063,5.1240910334725,70.0513824095629,-148.235686855633,35.0464409956141
0.5,59.3,-19.5647846814003,-4.80113464920312,2207.65289198567,5.12788193511852,70.0482472739901,-157.160177288676,33.4586283736079
0.5,59.35,-19.4936030865654,-4.98390944773825,2209.77921574736,5.13167325969335,70.0451271031933,-166.185275454568,32.0225147208652
0.5,59.4,-19.4666456268948,-5.17860896541711,2211.905303342,5.13546500583667,70.0420105868107,-175.297362389178,30.7760155233065
0.5,59.45,-19.4876080980099,-5.37961563676752,2214.03115541775,5.13925717219421,70.0388991679197,175.521510179222,29.7541764351512
0.5,59.5,-19.5595605447384,-5.57910454606319,2216.15677262032,5.14304975741774,70.0358036462528,166.292868597629,28.9832777514646
0.5,59.55,-19.6847858230775,-5.76741060907603,2218.28215559302,5.14684276016502,70.0327277022533,157.040588018206,28.4741402156317
0.5,59.6,-19.864684273914,-5.93393087488955,2220.40730497671,5.15063617909977,70.0296707006663,147.78929580377,28.2162319555847
0.5,59.65,-20.0997610087044,-6.06850525922921,2222.53222140988,5.15443001289164,70.0266315791658,138.562588175017,28.1747194326918
0.5,59.7,-20.3896984069409,-6.16299491914857,2224.65690552859,5.15822426021616,70.0236096242811,129.381272533299,28.2923057886762
0.5,59.75,-20.733501651635,-6.21260764833614,2226.78135796656,5.16201891975474,70.0206044151059,120.261829590145,28.4962746773149
0.5,59.8,-21.1296936648103,-6.21654058171161,2228.90557935509,5.16581399019457,70.0176157031079,111.215226319124,28.7090971561
0.5,59.85,-21.5765303964985,-6.17775601593274,2231.02957032317,5.16960947022865,70.0146433343113,102.246122928525,28.8594467128628
0.5,59.9,-22.0722083914791,-6.10204434600621,2233.1533314974,5.1734053585557,70.0116872059287,93.3524297054054,28.8904923869551
0.5,59.95,-22.6150420474678,-5.99675664798589,2235.27686350208,5.1772016538801,70.0087472427952,84.5251023587711,28.7638084033631
0.5,60,-23.2035950263179,-5.86960343004361,2237.40016695916,5.18099835491186,70.0058233844959,75.7480256684789,28.4590988613891
0.5,60.05,-23.836755980377,-5.7277686555287,2239.52324248828,5.18479546036644,70.0029155782623,66.9978222379761,27.9711459725346
0.5,60.1,-24.5137508879537,-5.57740593829294,2241.64609070679,5.18859296896468,70.0000237750372,58.2434273444294,27.3056318114181
0.5,60.15,-25.2340812746567,-5.42345822667202,2243.76871222973,5.19239087943309,69.9971479273109,49.4452837355543,26.4750735888278
0.5,60.2,-25.9973679731347,-5.26969391734466,2245.89110766987,5.19618919050532,69.9942879879628,40.5540289702787,25.4955222786157
0.5,60.25,-26.8030618370229,-5.11885774090239,2248.01327763771,5.19998790092313,69.9914439096793,31.5085818027335,24.3842029065797
0.5,60.3,-27.6499530229028,-4.97286274934824,2250.13522274148,5.20378700943168,69.9886156446968,22.2336147810163,23.1580058676638
0.5,60.35,-28.535365948817,-4.83297946204502,2252.25694358717,5.20758651477795,69.9858031447295,12.6366019683121,21.8326348624102
0.5,60.4,-29.4538689266478,-4.700000889044,2254.37844077855,5.21138641571465,69.9830063609952,2.60510729390638,20.4222101877465
0.5,60.45,-30.3952756344233,-4.57437644417801,2256.49971491713,5.21518671100121,69.9802252442886,-7.99398815293148,18.9391612270275
0.5,60.5,-31.341746587626,-4.45631545119408,2258.62076660222,5.21898739940297,69.977459745076,-19.309633511181,17.3942867804563
0.5,60.55,-32.2641189850232,-4.34586434377016,2260.74159643092,5.22278847969076,69.9747098135921,-31.489336254672,15.7969016858319
0.5,60.6,-33.1185930886459,-4.24296262675136,2262.86220499813,5.2265899506407,69.9719753999326,-44.6399372027354,14.1550185265159
0.5,60.65,-33.8468657303376,-4.14748243300667,2264.98259289658,5.23039181103421,69.9692564541362,-58.7607047921038,12.4755343654271
0.5,60.7,-34.3845844859609,-4.05925579523821,2267.1027607168,5.2341940596579,69.9665529262561,-73.6648259636605,10.7644062694991
0.5,60.75,-34.6804024942482,-3.97809292902459,2269.22270904718,5.23799669530361,69.9638647664204,-88.9447918639359,9.02680797113739
0.5,60.8,-34.7176793160934,-3.90379406344107,2271.34243847394,5.24179971676838,69.9611919248808,-104.047395503348,7.26726507565969
0.5,60.85,-34.5223563530982,-3.83615672045578,2273.46194958117,5.24560312285439,69.9585343520529,-118.445499978915,5.48976903423422
0.5,60.9,-34.1498319082943,-3.77497984218855,2275.5812429508,5.24940691236896,69.9558919985475,-131.791813834813,3.69787152874845
0.5,60.95,-33.6624897049985,-3.720065781564,2277.70031916267,5.25321108412454,69.9532648151953,-143.960363529688,1.89476152530153
0.5,61,-33.1133080988287,-3.67122088533023,2279.81917879447,5.25701563693865,69.9506527530652,-154.992641983065,0.0833274032449309
0.5,61.05,-32.5401743157179,-3.62825518741898,2281.93782242181,5.26082056963385,69.9480557634775,-165.018729723683,-1.73379352571413
0.5,61.1,-31.9671742814935,-3.59098157671114,2284.05625061819,5.26462588103773,69.9454737980139,-174.198006230674,-3.55417600074077
0.5,61.15,-31.4082786140666,-3.55921469161857,2286.17446395505,5.26843156998291,69.9429068085232,177.312764253565,-5.37557643862942
0.5,61.2,-30.8709601889811,-3.53276971310709,2288.29246300172,5.27223763530694,69.9403547471252,169.372036520869,-7.19590959681321
0.5,61.25,-30.358998300744,-3.51146116934264,2290.41024832548,5.27604407585235,69.9378175662117,161.855905341701,-9.01323090043062
0.5,61.3,-29.8744964557895,-3.4951018227911,2292.52782049157,5.27985089046655,69.9352952184467,154.656359275842,-10.8257232717742
0.5,61.35,-29.4193493608266,-3.48350167980621,2294.64518006316,5.28365807800189,69.9327876567647,147.678673200195,-12.6316874845572
0.5,61.4,-28.9963765348794,-3.47646714024126,2296.76232760139,5.28746563731553,69.930294834368,140.839743726913,-14.4295352242165
0.5,61.45,-28.6102447702641,-3.47380028808086,2298.87926366539,5.29127356726949,69.927816704724,134.068550257483,-16.2177841712988
0.5,61.5,-28.2681676216886,-3.47529831182969,2300.99598881224,5.29508186673062,69.925353221561,127.30969859729,-17.9950545406346
0.5,61.55,-27.9801986957303,-3.48075303419755,2303.11250359704,5.29889053457052,69.9229043388645,120.530661103457,-19.7600666068853
0.5,61.6,-27.758753130185,-3.48995052357601,2305.22880857287,5.30269956966556,69.9204700108727,113.732271002124,-21.5116388293296
0.5,61.65,-27.616912731132,-3.50267075421499,2307.34490429083,5.30650897089685,69.9180501920719,106.959766253573,-23.2486862568767
0.5,61.7,-27.565316188464,-3.51868727730642,2309.46079130005,5.31031873715019,69.9156448371922,100.308582691894,-24.9702189492208
0.5,61.75,-27.6081759736186,-3.53776686086851,2311.57647014766,5.31412886731606,69.9132539012027,93.9174199118893,-26.6753401921756
0.5,61.8,-27.7399364420923,-3.55966905192596,2313.69194137886,5.31793936028961,69.9108773393074,87.9443840351667,-28.363244314138
0.5,61.85,-27.9444397913842,-3.58414560951522,2315.80720553687,5.3217502149706,69.9085151069404,82.5310535366662,-30.0332139253866
0.5,61.9,-28.1974759263749,-3.61093975098657,2317.92226316298,5.32556143026339,69.9061671597618,77.7682954545047,-31.6846164004139
0.5,61.95,-28.4717629642499,-3.63978514632597,2320.03711479653,5.32937300507693,69.9038334536536,73.6781840817264,-33.3168994024623
0.5,62,-28.7422100735392,-3.67040458507509,2322.15176097496,5.33318493832472,69.9015139447155,70.21732381264,-34.9295852037932
0.5,62.05,-28.9895819058829,-3.70250822703467,2324.26620223376,5.33699722892477,69.8992085892609,67.2960732078401,-36.5222634771434
0.5,62.1,-29.2018684411274,-3.73579133026396,2326.38043910654,5.3408098757996,69.8969173438137,64.8032072622679,-38.0945821116891
0.5,62.15,-29.3737487985608,-3.76993132668102,2328.49447212498,5.34462287787621,69.894640165104,62.6272404387384,-39.6462354229548
0.5,62.2,-29.5050097789595,-3.80458408534126,2330.60830181889,5.34843623408606,69.8923770100652,60.6702503092167,-41.1769488539007
0.5,62.25,-29.5987164189036,-3.83937916453159,2332.7219287162,5.35224994336502,69.8901278358305,58.8540993484379,-42.6864588634285
0.5,62.3,-29.6596293851842,-3.87391380443766,2334.83535334294,5.35606400465336,69.8878925997297,57.1210759961086,-44.1744861069304
0.5,62.35,-29.6930614286264,-3.90774535098343,2336.9485762233,5.35987841689574,69.8856712592864,55.4313923323725,-45.6406991361958
0.5,62.4,-29.7041668882154,-3.94038172858569,2339.06159787961,5.36369317904118,69.8834637722149,53.7594721578411,-47.0846645354604
0.5,62.45,-29.6975693499851,-3.9712694987487,2341.17441883232,5.36750829004301,69.8812700964177,52.0902189791323,-48.5057774367593
0.5,62.5,-29.6772164763044,-3.99977896480337,2343.28703960008,5.37132374885888,69.8790901899828,50.4158300933124,-49.9031633604058
0.5,62.55,-29.6463692933161,-4.02518574118271,2345.39946069969,5.37513955445071,69.8769240111809,48.733322841061,-51.2755377385542
0.5,62.6,-29.6076605845217,-4.04664826785824,2347.51168264612,5.3789557057847,69.8747715184637,47.0427321333605,-52.6210024120026
0.5,62.65,-29.563181448088,-4.06318106771363,2349.62370595254,5.38277220183125,69.872632670461,45.34585770279,-53.9367474602511
0.5,62.7,-29.5145728965127,-4.07362443615733,2351.73553113029,5.38658904156501,69.8705074259787,43.6454267390041,-55.218609836044
0.5,62.75,-29.4631109182287,-4.07661338547433,2353.84715868894,5.39040622396478,69.8683957439968,41.9445543251933,-56.4604144187283
0.5,62.8,-29.4097802478836,-4.0705534205843,2355.95858913624,5.39422374801355,69.8662975836677,40.2464094783056,-57.6529844897239
0.5,62.85,-29.3553358000464,-4.05362091241618,2358.06982297817,5.39804161269845,69.8642129043136,38.5540189906537,-58.782654224043
0.5,62.9,-29.3003525339296,-4.02382707070852,2360.18086071894,5.4018598170107,69.8621416654252,36.8701612494348,-59.8290493352818
0.5,62.95,-29.2452652562976,-3.97922745406578,2362.29170286098,5.40567835994565,69.8600838266599,35.1973172816271,-60.7618534728946
0.5,63,-29.1904000438212,-3.91844167995415,2364.40234990498,5.4094972405027,69.8580393478399,33.5376570931091,-61.5363589799861
0.55,57,-26.8919557247868,-2.27685684572087,2129.48261378819,4.9026031252003,192.154198917137,-96.6549891142571,-78.221671236195
0.55,57.05,-27.2275614143348,-2.30216661627619,2131.59483671716,4.90645716289589,58.5486681957458,-104.659403095878,-80.3190217927712
0.55,57.1,-27.7250292911221,-2.33959964325662,2133.70686442361,4.91031141128858,58.5599573097633,-113.031101026631,-82.3753131917369
0.55,57.15,-28.4119584731714,-2.3876806842433,2135.81869734321,4.91416587014314,58.5712182513272,-121.699123665701,-84.3685607868959
0.55,57.2,-29.3186378229489,-2.44357471600425,2137.93033591072,4.91802053922226,58.5824427459107,-130.603088714975,-86.2799579416385
0.55,57.25,-30.4827603648456,-2.50334091370722,2140.04178056002,4.92187541828656,58.5936296612543,-139.726595406781,-88.0984196016206
0.55,57.3,-31.9596278126313,-2.56258599997669,2142.15303172408,4.92573050709467,58.6047800571276,-149.149620227012,-89.8237935967149
0.55,57.35,-33.842499457167,-2.61731930944378,2144.26408983498,4.92958580540324,58.6159063047321,-159.150392262675,-91.4671348462984
0.55,57.4,-36.3050704322292,-2.6646779526672,2146.3749553239,4.93344131296697,58.6269214399176,-170.477398535404,-93.0477874549876
0.55,57.45,-39.6945977070006,-2.70326071903684,2148.48562862112,4.93729702953864,58.6379707673253,174.656585081937,-94.588616383014
0.55,57.5,-44.5848555307919,-2.73302813295202,2150.59611015602,4.94115295486918,58.6489673660491,147.554460041069,-96.1113879088489
0.55,57.55,-47.760363410422,-2.75492030077902,2152.70640035706,4.94500908870765,58.659923874305,81.3401658105453,-97.6337272838767
0.55,57.6,-42.8741975300975,-2.77040111194854,2154.8164996518,4.94886543080135,58.6708418445468,30.3666682801448,-99.1679892077399
0.55,57.65,-38.6521250712029,-2.78107805597741,2156.92640846691,4.95272198089576,58.6817218450384,9.77408412904903,-100.721574060302
0.55,57.7,-35.7418845940412,-2.78845487631823,2159.03612722812,4.95657873873467,58.6925640132597,-2.78066418711189,-102.297982383771
0.55,57.75,-33.6096948065145,-2.79380846663735,2161.14565636025,4.96043570406014,193.704922591677,-12.5321626656188,-103.898040924859
0.55,57.8,-31.9738270142462,-2.79815434274995,2163.25499628723,4.96429287661258,58.7141390581588,-20.9368565165073,-105.52098444025
0.55,57.85,-30.6823187119845,-2.80226403585301,2165.36414743205,4.96815025613076,58.7248700719304,-28.5041308232194,-107.165279902601
0.55,57.9,-29.642348897922,-2.80670735251127,2167.4731102168,4.97200784235185,58.7355647399271,-35.4317570467249,-108.829194391854
0.55,57.95,-28.7899900333631,-2.81190313180636,2169.58188506265,4.97586563501144,58.7462230905833,-41.8043693511163,-110.511153504719
0.55,58,-28.0772511469915,-2.81817020851474,2171.69047238983,4.97972363384362,58.7568452957755,-47.6710638591687,-112.209943358887
0.55,58.05,-27.4666167101859,-2.82577525230013,2173.79887261768,4.98358183858094,58.7674315480146,-53.0773792650543,-113.924798389396
0.55,58.1,-26.9286903492852,-2.83497660956304,2175.90708616459,4.9874402489545,58.7779820489304,-58.0757498143553,-115.655401473754
0.55,58.15,-26.4409067500458,-2.84606394696867,2178.01511344806,4.99129886469395,58.7884969998983,-62.7255186838217,-117.401808200861
0.55,58.2,-25.9864768978856,-2.8593928881658,2180.12295488463,4.99515768552754,58.7989766023765,-67.0889207320371,-119.164295964936
0.55,58.25,-25.5533393185985,-2.87541225985143,2182.23061088994,4.99901671118214,58.8094210574602,-71.2266224778104,-120.943133094878
0.55,58.3,-25.1331378125998,-2.89467933423157,2184.3380818787,5.00287594138326,58.8198305637012,-75.1944048477974,-122.738266272857
0.55,58.35,-24.7203000615044,-2.91785618488871,2186.44536826469,5.00673537585511,58.830205319845,-79.0413350210915,-124.548939728314
0.55,58.4,-24.3112677413053,-2.94567918435025,2188.55247046076,5.0105950143206,58.8405455218952,-82.8091799526037,-126.373289761411
