"W_50 [mm]","Freq [GHz]","dB(S(1,1)) []","dB(S(2,1)) []","im(Gamma(1:1)) []","re(Gamma(1:1)) []","re(Zo(1:1)) []","ang_deg(S(1,1)) [deg]","ang_deg(S(2,1)) [deg]"
0.5,57,-8.97823868900224,-8.1280154051015,2020.31597250278,4.67249584297041,37.3632597420202,-121.829935045665,-106.251678160894
0.5,57.05,-9.30813035151896,-7.93568722567215,2022.36491468667,4.67607054404357,37.3606743270418,-124.521181489999,-107.981160956717
0.5,57.1,-9.64980142741578,-7.74812644148321,2024.41362538411,4.67964639393128,37.3581053691754,-127.162287678014,-109.80015633234
0.5,57.15,-10.0027066896191,-7.56693211255179,2026.46210540956,4.68322339015479,37.3555528089511,-129.755731630692,-111.709371980371
0.5,57.2,-10.3664295415084,-7.39384996563415,2028.51035557414,4.68680153024791,37.3530165872163,-132.304126127533,-113.707746920645
0.5,57.25,-10.7406776072663,-7.23072513941007,2030.55837668567,4.69038081175699,37.3504966451337,-134.809889556598,-115.79202867493
0.5,57.3,-11.1252665411688,-7.0794295560484,2032.60616954868,4.69396123224076,37.347992924179,-137.274826758272,-117.956388916819
0.5,57.35,-11.5200834651785,-6.94176248973212,2034.65373496438,4.69754278927032,37.3455053661391,-139.699577474811,-120.192144176895
0.5,57.4,-11.9250131348321,-6.81932708178878,2036.70107373074,4.70112548042899,37.34303391311,-142.082881074323,-122.487661628914
0.5,57.45,-12.3397946797237,-6.71339130529388,2038.74818664249,4.70470930331229,37.3405785074946,-144.42061562727,-124.828531280384
0.5,57.5,-12.7637499120787,-6.62474832411623,2040.79507449111,4.70829425552781,37.338139092001,-146.704641298625,-127.198067719701
0.5,57.55,-13.1952815674898,-6.55359664951774,2042.84173806488,4.71188033469514,37.33571560964,-148.921727707317,-129.578162786011
0.5,57.6,-13.6309898184921,-6.49946282092893,2044.88817814887,4.71546753844581,37.3333080037239,-151.053539842825,-131.950447983805
0.5,57.65,-14.0642638019255,-6.46118665410476,2046.93439552497,4.71905586442318,37.3309162178638,-153.080289346272,-134.297654244988
0.5,57.7,-14.4835132799832,-6.43698078906543,2048.98039097193,4.72264531028238,37.3285401959679,-154.993598393273,-136.604996337638
0.5,57.75,-14.8713662966433,-6.42456364349431,2051.02616526533,4.72623587369023,37.3261798822398,-156.826323070312,-138.861380547174
0.5,57.8,-15.2084527992367,-6.42135104975531,2053.07171917762,4.72982755232514,37.3238352211763,-158.697997081588,-141.060250275621
0.5,57.85,-15.4857417486268,-6.42468069141757,2055.11705347813,4.73342034387708,37.3215061575655,-160.837038831334,-143.199943744825
0.5,57.9,-15.7196553341237,-6.43203806294059,2057.16216893312,4.73701424604746,37.3191926364852,-163.504647223516,-145.283525235749
0.5,57.95,-15.9498542703237,-6.4412542138239,2059.20706630573,4.74060925654911,37.3168946033007,-166.831595430063,-147.318142047845
0.5,58,-16.2140358139275,-6.4506529493292,2061.25174635607,4.74420537310621,37.314612003663,-170.743035538621,-149.31403051537
0.5,58.05,-16.5270906927704,-6.45913583554282,2063.29620984116,4.74780259345451,37.3123447835072,-175.059515752814,-151.283331795626
0.5,58.1,-16.8827291934062,-6.46620427621099,2065.34045751501,4.75140091534282,37.3100928890503,-179.631163004792,-153.238879484724
0.5,58.15,-17.2654080267253,-6.47192668736594,2067.38449012857,4.7550003365705,37.3078562667897,175.614337726366,-155.193094068185
0.5,58.2,-17.6586807781548,-6.47686414839336,2069.42830843013,4.758600854791,37.3056348635012,170.688878682691,-157.15707648575
0.5,58.25,-18.0479466788746,-6.48196977721236,2071.47191316417,4.76220246784478,37.3034286262374,165.574242907445,-159.139947410605
0.5,58.3,-18.4203675387236,-6.48847619725219,2073.515305073,4.76580517355812,37.3012375023255,160.244237224215,-161.148439549962
0.5,58.35,-18.7641045653075,-6.49778291083752,2075.55848489566,4.76940896970744,37.2990614393662,154.677777082725,-163.18672209402
0.5,58.4,-19.0677760196677,-6.51135219131328,2077.60145336826,4.77301385410277,37.2969003852314,148.866583635392,-165.256420034585
0.5,58.45,-19.3203891874479,-6.53061900158368,2079.644211224,4.77661982456617,37.2947542880626,142.81998881375,-167.356784487411
0.5,58.5,-19.5117513210491,-6.55691785119357,2081.68675919315,4.78022687893051,37.2926230962693,136.567597297842,-169.484970364214
0.5,58.55,-19.633244214247,-6.59142754820932,2083.7290980031,4.78383501503922,37.2905067585272,130.159474151436,-171.636381830777
0.5,58.6,-19.6787492502144,-6.63513343784568,2085.77122837836,4.78744423074616,37.2884052237764,123.663273068582,-173.805051750022
0.5,58.65,-19.6454412190453,-6.68880582041256,2087.81315104055,4.79105452391559,37.2863184412201,117.158225003959,-175.984027396583
0.5,58.7,-19.5341810362168,-6.7529926733966,2089.85486670845,4.79466589242203,37.2842463603224,110.726873221816,-178.165740508423
0.5,58.75,-19.3493566515897,-6.82802446360834,2091.896376098,4.79827833415025,37.282188930807,104.446311232227,179.6576549714
0.5,58.8,-19.0982072820864,-6.91402866212371,2093.93767992233,4.80189184699516,37.2801461026553,98.3809007843919,177.493989296099
0.5,58.85,-18.7898277067407,-7.01095153522782,2095.97877889172,4.80550642886175,37.2781178261052,92.577860722106,175.350834909618
0.5,58.9,-18.4341118526167,-7.1185848630257,2098.01967371371,4.80912207766505,37.2761040516489,87.0660772188401,173.235319544258
0.5,58.95,-18.040850293365,-7.23659542078874,2100.060365093,4.81273879133002,37.2741047300318,81.8575522228247,171.153994513326
0.5,59,-17.6190942759958,-7.36455532781315,2102.10085373156,4.81635656779154,37.2721198122505,76.9504413527512,169.112755503237
0.5,59.05,-17.1767995161307,-7.50197169811728,2104.1411403286,4.81997540499428,37.2701492495514,72.3326477043916,167.116811106297
0.5,59.1,-16.720700325533,-7.64831438482496,2106.18122558058,4.8235953008927,37.2681929934292,67.9852298449317,165.170693038244
0.5,59.15,-16.2563420610078,-7.80304096291814,2108.22111018124,4.82721625345093,37.2662509956253,63.8852300740106,163.27830142808
0.5,59.2,-15.788204326556,-7.9656184143558,2110.2607948216,4.83083826064275,37.264323208126,60.0078032460186,161.442978664066
0.5,59.25,-15.3198636786436,-8.13554124344235,2112.30028019,4.8344613204515,37.2624095831614,56.3276917312985,159.667605897847
0.5,59.3,-14.8541624493177,-8.31234594486815,2114.33956697207,4.83808543087001,37.2605100732034,52.8201662606713,157.954717297695
0.5,59.35,-14.3933648794223,-8.49562186531554,2116.37865585079,4.84171058990059,37.2586246309645,49.4615686144684,156.306628352961
0.5,59.4,-13.9392918812895,-8.68501854033076,2118.41754750646,4.8453367955549,37.2567532093963,46.2295790922973,154.725575832671
0.5,59.45,-13.493432006542,-8.88024955218157,2120.45624261675,4.84896404585394,37.2548957616878,43.1033081019594,153.213868280982
0.5,59.5,-13.05702966349,-9.08109284231419,2122.4947418567,4.85259233882795,37.253052241264,40.0632868881388,151.774047098443
0.5,59.55,-12.6311533120998,-9.28738722193114,2124.53304589871,4.85622167251638,37.2512226017846,37.091411442071,150.409059223972
0.5,59.6,-12.2167469970278,-9.49902455005057,2126.5711554126,4.85985204496784,37.2494067971423,34.1708769067649,149.122443097202
0.5,59.65,-11.8146686277734,-9.71593667910734,2128.60907106559,4.86348345423998,37.2476047814615,31.2861268473701,147.918529799865
0.5,59.7,-11.42571814383,-9.93807578825492,2130.6467935223,4.86711589839951,37.2458165090966,28.4228317277083,146.802660819336
0.5,59.75,-11.0506582465361,-10.1653861172669,2132.6843234448,4.87074937552207,37.2440419346311,25.5679030403554,145.781422378164
0.5,59.8,-10.6902298052279,-10.3977643688377,2134.72166149261,4.87438388369222,37.2422810128757,22.7095432540187,144.862893145892
0.5,59.85,-10.3451633976285,-10.6350051758971,2136.7588083227,4.87801942100337,37.2405336988671,19.8373268010298,144.056896498421
0.5,59.9,-10.0161877721002,-10.87672709798,2138.79576458951,4.88165598555772,37.2387999478664,16.9423036352843,143.375239007349
0.5,59.95,-9.70403538659903,-11.1222737898523,2140.83253094496,4.88529357546619,37.2370797153581,14.017114414157,142.831901736467
0.5,60,-9.40944466175752,-11.3705846512353,2142.86910803847,4.88893218884838,37.2353729570485,11.0561050333601,142.443127999643
0.5,60.05,-9.1331582578081,-11.6200301370552,2144.90549651698,4.89257182383253,37.233679628864,8.05542793488736,142.227318360268
0.5,60.1,-8.87591660273125,-11.8682102284992,2146.94169702492,4.8962124785554,37.2319996869506,5.0131181216547,142.204600080815
0.5,60.15,-8.63844608409888,-12.1117222632315,2148.97771020427,4.89985415116231,37.2303330876716,1.92913295605487,142.395887536486
0.5,60.2,-8.42144174923617,-12.3459189172278,2151.01353669457,4.90349683980699,37.228679787607,-1.19465353086768,142.821205587217
0.5,60.25,-8.22554497435831,-12.5647009155603,2153.04917713288,4.90714054265161,37.2270397435518,-4.35450895776788,143.497040493935
0.5,60.3,-8.05131726469143,-12.7604217742384,2155.08463215386,4.91078525786666,37.2254129125146,-7.54495799139557,144.432568401182
0.5,60.35,-7.89921201438094,-12.9240162790517,2157.11990238973,4.91443098363092,37.2237992517167,-10.7589559654903,145.624865712654
0.5,60.4,-7.76954656471022,-13.0454807098015,2159.15498847032,4.91807771813142,37.2221987185906,-13.9881179395023,147.053687918268
0.5,60.45,-7.66247714792066,-13.1147978049062,2161.18989102305,4.92172545956337,37.2206112707785,-17.222996086652,148.677066449349
0.5,60.5,-7.57797922705203,-13.1232811076446,2163.22461067295,4.92537420613012,37.2190368661313,-20.4533939795532,150.429548954758
0.5,60.55,-7.51583532981489,-13.065117492578,2165.25914804269,4.9290239560431,37.2174754627074,-23.6687026138177,152.224897739503
0.5,60.6,-7.47563177726508,-12.9386947333541,2167.29350375258,4.93267470752176,37.2159270187709,-26.8582405015968,153.964012926134
0.5,60.65,-7.4567648298386,-12.7472522513821,2169.32767842057,4.93632645879353,37.2143914927911,-30.0115793789608,155.546891492826
0.5,60.7,-7.45845585070278,-12.4985794279128,2171.36167266227,4.93997920809378,37.2128688434408,-33.1188382292631,156.88555004148
0.5,60.75,-7.47977425970549,-12.203838011463,2173.39548709098,4.94363295366574,37.2113590295948,-36.170931302163,157.914276516156
0.5,60.8,-7.5196664350767,-11.875897480396,2175.42912231766,4.94728769376048,37.2098620103294,-39.1597601445885,158.594756739443
0.5,60.85,-7.57698838174696,-11.5276714584183,2177.46257895098,4.95094342663683,37.2083777449204,-42.0783446741275,158.915728537266
0.5,60.9,-7.65053993645453,-11.1708222889154,2179.49585759732,4.95460015056137,37.2069061928422,-44.9208932757151,158.888566183196
0.5,60.95,-7.73909848284272,-10.8149842265767,2181.52895886076,4.95825786380833,37.2054473137664,-47.6828161457159,158.540877290899
0.5,61,-7.8414505332255,-10.4674724174503,2183.56188334313,4.96191656465959,37.2040010675604,-50.3606892090144,157.909927482746
0.5,61.05,-7.95642001320514,-10.1333501361336,2185.59463164397,4.9655762514046,37.2025674142863,-52.9521777090324,157.0370194437
0.5,61.1,-8.08289258153062,-9.8157096638967,2187.6272043606,4.96923692234034,37.201146314199,-55.4559290576697,155.963285563524
0.5,61.15,-8.21983576846856,-9.51604751307438,2189.65960208809,4.97289857577129,37.199737727745,-57.8714439309617,154.726900894828
0.5,61.2,-8.36631508179408,-9.23465260256878,2191.69182541927,4.97656121000934,37.1983416155605,-60.1989331828746,153.361493317565
0.5,61.25,-8.52150649168883,-8.97096033719911,2193.72387494477,4.98022482337379,37.1969579384697,-62.439166204315,151.89545437173
0.5,61.3,-8.6847058615497,-8.7238508532019,2195.755751253,4.98388941419127,37.1955866574823,-64.5933141078534,150.351867230183
0.5,61.35,-8.85533594677526,-8.49188598217004,2197.78745493018,4.98755498079572,37.1942277337908,-66.6627887236464,148.748818337221
0.5,61.4,-9.03295154478527,-8.27348872896992,2199.81898656034,4.99122152152833,37.1928811287677,-68.6490759145611,147.099917993011
0.5,61.45,-9.21724324710804,-8.06707345690191,2201.85034672533,4.99488903473746,37.1915468039604,-70.5535591445242,145.414908896914
0.5,61.5,-9.40804000441778,-7.87113633951633,2203.88153600485,4.99855751877868,37.190224721086,-72.3773264874725,143.700285175928
0.5,61.55,-9.60531033075394,-7.6843152858734,2205.91255497643,5.00222697201464,37.1889148420229,-74.1209512363682,141.959876943325
0.5,61.6,-9.80916137139178,-7.50542734925612,2207.94340421547,5.00589739281506,37.1876171287992,-75.7842328748441,140.19537820077
0.5,61.65,-10.0198341152118,-7.33349012926438,2209.9740842952,5.00956877955669,37.1863315435754,-77.3658814420761,138.406810864096
0.5,61.7,-10.2376915465885,-7.16773217970514,2212.00459578678,5.01324113062327,37.1850580486172,-78.8631246138043,136.592926841868
0.5,61.75,-10.4631942002744,-7.00759609080203,2214.03493925921,5.01691444440546,37.1837966062516,-80.2712142304813,134.751555138809
0.5,61.8,-10.6968539794035,-6.85273678023015,2216.0651152794,5.02058871930082,37.1825471787943,-81.5828101403964,132.87990323207
0.5,61.85,-10.9391517019303,-6.70301660695359,2218.09512441217,5.02426395371375,37.18130972842,-82.7872296846766,130.974822448521
0.5,61.9,-11.190396225412,-6.55849819380967,2220.12496722025,5.02794014605548,37.1800842169211,-83.8695819927789,129.033046413788
0.5,61.95,-11.450493413358,-6.41943528110917,2222.1546442643,5.03161729474397,37.178870605224,-84.8098776661403,127.051410264838
0.5,62,-11.7185840698061,-6.28626150911316,2224.18415610291,5.03529539820391,37.1776688523247,-85.5823493525,125.027056461968
0.5,62.05,-11.9925090681541,-6.15957672533773,2226.21350329261,5.03897445486669,37.1764789126435,-86.1554808329801,122.957630840758
0.5,62.1,-12.2680858186828,-6.04013022666116,2228.2426863879,5.04265446317032,37.1753007281875,-86.493651361034,120.841470096467
0.5,62.15,-12.5382676964593,-5.9288002791495,2230.27170594122,5.0463354215594,37.1741341979861,-86.5617904096531,118.677779277559
0.5,62.2,-12.7924510297012,-5.82656931987349,2232.300562503,5.05001732848509,37.1729789771437,-86.3346545059621,116.466795205763
0.5,62.25,-13.0164954172236,-5.73449444548261,2234.32925662166,5.05370018240507,37.1718245615695,-85.8114173559995,114.209929231288
0.5,62.3,-13.1942684155775,-5.65367313642853,2236.35778884359,5.05738398178348,37.1707077567172,-85.0330023575584,111.909880650341
0.5,62.35,-13.3112694072492,-5.58520464304061,2238.38615971319,5.0610687250909,37.1695873802858,-84.0939861699833,109.570710805648
0.5,62.4,-13.359668489892,-5.53014803650236,2240.41436977288,5.0647544108043,37.1684791362639,-83.1370332410352,107.197867733327
0.5,62.45,-13.342363273825,-5.48947854227906,2242.44241956309,5.068441037407,37.1673825850311,-82.3233417838745,104.798152532842
0.5,62.5,-13.273242450868,-5.46404433707457,2244.47030962229,5.07212860338863,37.1662976187718,-81.7889273196589,102.379621587778
0.5,62.55,-13.1730376167958,-5.45452639804245,2246.49804048697,5.0758171072451,37.1652241846051,-81.6097996471126,99.9514232631961
0.5,62.6,-13.0631864402647,-5.46140414325842,2248.52561269167,5.07950654747855,37.1641622482611,-81.7934364166032,97.5235733369354
0.5,62.65,-12.960969952549,-5.48492942282832,2250.55302676902,5.08319692259732,37.1631117876781,-82.2948512853311,95.1066794595399
0.5,62.7,-12.8774981716006,-5.5251108910794,2252.58028324967,5.08688823111589,37.1620727958231,-83.0425774352727,92.7116304422935
0.5,62.75,-12.8180993646661,-5.58170996003404,2254.60738266237,5.09058047155489,37.161045292903,-83.9610727625445,90.3492701865969
0.5,62.8,-12.7838585096011,-5.65424851517204,2256.63432553394,5.09427364244099,37.1600293612081,-84.9840710207947,88.030077839639
0.5,62.85,-12.7732856664465,-5.74202752146185,2258.66111238931,5.09796774230694,37.159025259471,-86.05971643162,85.7638749426207
0.5,62.9,-12.7836272973445,-5.84415472362737,2260.6877437515,5.10166276969147,37.158033939342,-87.1505788720432,83.5595770772169
0.5,62.95,-12.8117238880014,-5.95957898274763,2262.71422014163,5.10535872313929,37.1570612078656,-88.231348431633,81.4250024169318
0.5,63,-12.854494468123,-6.0871284669452,2264.74054207896,5.10905560120104,37.1560465980128,-89.2859528540786,79.3667435497623
0.55,57,-10.0219432212416,-7.15150950710696,2044.65690551157,4.60128518365797,33.7446709348952,-129.275218965862,-104.059765738738
0.55,57.05,-10.438249908885,-6.98004629893936,2046.68021427856,4.60493569470919,33.7435478485338,-132.020743330176,-106.221333722036
0.55,57.1,-10.86772962827,-6.81893025370505,2048.70334773518,4.608587210345,33.7424372297596,-134.622997432893,-108.456262850764
0.55,57.15,-11.3086763809435,-6.66954220931951,2050.72630651868,4.61223972883497,33.7413390380751,-137.090235496003,-110.759745150758
0.55,57.2,-11.7596906648276,-6.53322505304662,2052.7490912638,4.61589324845685,33.7402532331921,-139.431556773687,-113.125286922151
0.55,57.25,-12.2196358008394,-6.41122862640286,2054.77170260276,4.6195477674965,33.73917977503,-141.656564536876,-115.5446304401
0.55,57.3,-12.687584407089,-6.30464670715779,2056.79414116528,4.62320328424782,33.7381186237152,-143.775133510129,-118.007759204395
0.55,57.35,-13.1627560672567,-6.21434903454652,2058.8164075786,4.62685979701272,33.7370697395788,-145.797283218389,-120.503009868844
0.55,57.4,-13.6444455231624,-6.14091277857542,2060.83850246747,4.63051730410103,33.7360330831563,-147.733160356987,-123.017309432437
0.55,57.45,-14.1319391976822,-6.08455912860543,2062.8604264542,4.6341758038305,33.7350086151855,-149.593144337931,-125.536547838896
0.55,57.5,-14.6244166471793,-6.04510153735079,2064.88218015862,4.63783529452671,33.7339962966059,-151.388107693139,-128.046084101198
0.55,57.55,-15.1208329622191,-6.02191237338609,2066.90376419815,4.64149577452302,33.7329960885569,-153.129889116498,-130.531369504377
0.55,57.6,-15.6197788901741,-6.0139141586643,2068.92517918778,4.64515724216051,33.7320079523767,-154.832074342924,-132.978656046457
0.55,57.65,-16.119318983035,-6.01960016845429,2070.94642574008,4.64881969578797,33.7310318496012,-156.511230863071,-135.375744055558
0.55,57.7,-16.6168170012702,-6.03708704230906,2072.96750446521,4.65248313376179,33.7300677419625,-158.188804295639,-137.712711742114
0.55,57.75,-17.1087763205106,-6.06419937275559,2074.98841597097,4.65614755444597,33.729115591388,-159.893941411677,-139.982562727669
0.55,57.8,-17.5907565184514,-6.0985832097165,2077.00916086275,4.65981295621201,33.7281753599988,-161.667510525678,-142.181726254064
0.55,57.85,-18.0574788782814,-6.13784224698802,2079.02973974359,4.66347933743888,33.7272470101086,-163.567438004666,-144.310349456964
0.55,57.9,-18.5032944172489,-6.1796873617694,2081.05015321419,4.66714669651302,33.7263305042229,-165.674978958903,-146.372332425622
0.55,57.95,-18.9232169597239,-6.22208745828808,2083.07040187289,4.67081503182821,33.7254258050369,-168.100450038606,-148.375075421635
0.55,58,-19.314622648651,-6.26340766267726,2085.0904863157,4.67448434178556,33.7245328754355,-170.985209151205,-150.328933765723
0.55,58.05,-19.679344112616,-6.30252039834293,2087.11040713631,4.67815462479348,33.7236516784908,-174.494932967582,-152.246408280398
0.55,58.1,-20.0251937790371,-6.33887629926867,2089.13016492613,4.68182587926759,33.7227821774622,-178.799509140597,-154.141134251452
0.55,58.15,-20.3652767975132,-6.37252559495763,2091.14976027425,4.6854981036307,33.7219243357943,175.960174365217,-156.026763653135
0.55,58.2,-20.7136807083406,-6.40408631393706,2093.16919376747,4.68917129631277,33.7210781171161,169.708657159836,-157.915856557602
0.55,58.25,-21.0780134144332,-6.4346625668474,2095.18846599033,4.69284545575081,33.72024348524,162.458516808998,-159.818901833228
0.55,58.3,-21.4520079421615,-6.46572296082706,2097.20757752512,4.69652058038891,33.7194204041604,154.308004924672,-161.743571483841
0.55,58.35,-21.8125374558789,-6.49895442145548,2099.22652895186,4.70019666867812,33.7186088380526,145.420711085895,-163.694279341764
0.55,58.4,-22.123392695675,-6.53610925170707,2101.24532084833,4.70387371907646,33.7178087512719,136.006146983457,-165.672070090699
